Freq.	V(hp)
Step Information: Run=1  (Run: 1/40)
1.00000000000000e+001	(-7.29100339881050e+001dB,9.73832519556257e+001°)
1.04712854805090e+001	(-7.25019054811320e+001dB,9.77259455920658e+001°)
1.09647819614319e+001	(-7.20930103036996e+001dB,9.80840236326964e+001°)
1.14815362149688e+001	(-7.16832779524655e+001dB,9.84581012151326e+001°)
1.20226443461741e+001	(-7.12726317957521e+001dB,9.88488070911970e+001°)
1.25892541179417e+001	(-7.08609886103285e+001dB,9.92567822144568e+001°)
1.31825673855641e+001	(-7.04482580969155e+001dB,9.96826780109369e+001°)
1.38038426460289e+001	(-7.00343423763633e+001dB,1.00127154293595e+002°)
1.44543977074593e+001	(-6.96191354692423e+001dB,1.00590876778421e+002°)
1.51356124843621e+001	(-6.92025227625142e+001dB,1.01074514157615e+002°)
1.58489319246111e+001	(-6.87843804680379e+001dB,1.01578734683319e+002°)
1.65958690743756e+001	(-6.83645750789058e+001dB,1.02104202214093e+002°)
1.73780082874938e+001	(-6.79429628310309e+001dB,1.02651571675926e+002°)
1.81970085860999e+001	(-6.75193891789881e+001dB,1.03221483890367e+002°)
1.90546071796325e+001	(-6.70936882968777e+001dB,1.03814559724677e+002°)
1.99526231496888e+001	(-6.66656826168861e+001dB,1.04431393523115e+002°)
2.08929613085404e+001	(-6.62351824202583e+001dB,1.05072545784955e+002°)
2.18776162394956e+001	(-6.58019854975185e+001dB,1.05738535064084e+002°)
2.29086765276778e+001	(-6.53658768969220e+001dB,1.06429829077389e+002°)
2.39883291901949e+001	(-6.49266287822085e+001dB,1.07146835025133e+002°)
2.51188643150958e+001	(-6.44840004226573e+001dB,1.07889889146462e+002°)
2.63026799189539e+001	(-6.40377383400721e+001dB,1.08659245557292e+002°)
2.75422870333817e+001	(-6.35875766385099e+001dB,1.09455064446386e+002°)
2.88403150312661e+001	(-6.31332375431135e+001dB,1.10277399738180e+002°)
3.01995172040202e+001	(-6.26744321741248e+001dB,1.11126186367604e+002°)
3.16227766016838e+001	(-6.22108615808251e+001dB,1.12001227352062e+002°)
3.31131121482592e+001	(-6.17422180575579e+001dB,1.12902180887665e+002°)
3.46736850452532e+001	(-6.12681867599441e+001dB,1.13828547739318e+002°)
3.63078054770102e+001	(-6.07884476337399e+001dB,1.14779659235131e+002°)
3.80189396320562e+001	(-6.03026776614220e+001dB,1.15754666212368e+002°)
3.98107170553498e+001	(-5.98105534224958e+001dB,1.16752529291870e+002°)
4.16869383470336e+001	(-5.93117539528376e+001dB,1.17772010877171e+002°)
4.36515832240167e+001	(-5.88059638763336e+001dB,1.18811669280274e+002°)
4.57088189614876e+001	(-5.82928767690828e+001dB,1.19869855364897e+002°)
4.78630092322639e+001	(-5.77721987030536e+001dB,1.20944712067440e+002°)
5.01187233627273e+001	(-5.72436519030305e+001dB,1.22034177104123e+002°)
5.24807460249774e+001	(-5.67069784388022e+001dB,1.23135989099175e+002°)
5.49540873857626e+001	(-5.61619438647083e+001dB,1.24247697274488e+002°)
5.75439937337158e+001	(-5.56083407117874e+001dB,1.25366674728668e+002°)
6.02559586074359e+001	(-5.50459917346461e+001dB,1.26490135207223e+002°)
6.30957344480195e+001	(-5.44747528164334e+001dB,1.27615153132040e+002°)
6.60693448007598e+001	(-5.38945154413218e+001dB,1.28738686524696e+002°)
6.91830970918938e+001	(-5.33052086547034e+001dB,1.29857602332862e+002°)
7.24435960074992e+001	(-5.27068004465758e+001dB,1.30968703560298e+002°)
7.58577575029186e+001	(-5.20992985126295e+001dB,1.32068757516509e+002°)
7.94328234724284e+001	(-5.14827503693263e+001dB,1.33154524447977e+002°)
8.31763771102674e+001	(-5.08572428225211e+001dB,1.34222785793255e+002°)
8.70963589956084e+001	(-5.02229008125136e+001dB,1.35270371320449e+002°)
9.12010839355913e+001	(-4.95798856804266e+001dB,1.36294184456584e+002°)
9.54992586021439e+001	(-4.89283929202011e+001dB,1.37291225200212e+002°)
1.00000000000000e+002	(-4.82686494962252e+001dB,1.38258610115454e+002°)
1.04712854805090e+002	(-4.76009108179547e+001dB,1.39193589029858e+002°)
1.09647819614319e+002	(-4.69254574694568e+001dB,1.40093558191913e+002°)
1.14815362149689e+002	(-4.62425917936398e+001dB,1.40956069778230e+002°)
1.20226443461742e+002	(-4.55526344283369e+001dB,1.41778837768010e+002°)
1.25892541179417e+002	(-4.48559208850172e+001dB,1.42559740316913e+002°)
1.31825673855641e+002	(-4.41527982514839e+001dB,1.43296818859315e+002°)
1.38038426460289e+002	(-4.34436220883872e+001dB,1.43988274244272e+002°)
1.44543977074593e+002	(-4.27287535766277e+001dB,1.44632460265200e+002°)
1.51356124843621e+002	(-4.20085569596010e+001dB,1.45227874976721e+002°)
1.58489319246112e+002	(-4.12833973114720e+001dB,1.45773150206153e+002°)
1.65958690743757e+002	(-4.05536386508514e+001dB,1.46267039664180e+002°)
1.73780082874938e+002	(-3.98196424088135e+001dB,1.46708406042643e+002°)
1.81970085860999e+002	(-3.90817662514127e+001dB,1.47096207460445e+002°)
1.90546071796326e+002	(-3.83403632498716e+001dB,1.47429483584627e+002°)
1.99526231496889e+002	(-3.75957813864396e+001dB,1.47707341715859e+002°)
2.08929613085405e+002	(-3.68483633804955e+001dB,1.47928943088647e+002°)
2.18776162394956e+002	(-3.60984468176717e+001dB,1.48093489598808e+002°)
2.29086765276778e+002	(-3.53463645644379e+001dB,1.48200211136056e+002°)
2.39883291901950e+002	(-3.45924454515563e+001dB,1.48248353669523e+002°)
2.51188643150959e+002	(-3.38370152119276e+001dB,1.48237168209867e+002°)
2.63026799189540e+002	(-3.30803976614808e+001dB,1.48165900754516e+002°)
2.75422870333818e+002	(-3.23229161158107e+001dB,1.48033783313576e+002°)
2.88403150312662e+002	(-3.15648950401998e+001dB,1.47840026114606e+002°)
3.01995172040203e+002	(-3.08066619364720e+001dB,1.47583811096420e+002°)
3.16227766016840e+002	(-3.00485494768625e+001dB,1.47264286828379e+002°)
3.31131121482593e+002	(-2.92908979028292e+001dB,1.46880565036186e+002°)
3.46736850452534e+002	(-2.85340577155598e+001dB,1.46431718984484e+002°)
3.63078054770104e+002	(-2.77783926948543e+001dB,1.45916784069819e+002°)
3.80189396320564e+002	(-2.70242832938990e+001dB,1.45334761129147e+002°)
3.98107170553500e+002	(-2.62721304685506e+001dB,1.44684623190041e+002°)
4.16869383470338e+002	(-2.55223600095130e+001dB,1.43965326710389e+002°)
4.36515832240169e+002	(-2.47754274507350e+001dB,1.43175828823281e+002°)
4.57088189614878e+002	(-2.40318236204263e+001dB,1.42315112782111e+002°)
4.78630092322641e+002	(-2.32920808685294e+001dB,1.41382224781537e+002°)
5.01187233627276e+002	(-2.25567799203311e+001dB,1.40376326727855e+002°)
5.24807460249776e+002	(-2.18265571222772e+001dB,1.39296771477235e+002°)
5.49540873857628e+002	(-2.11021114771209e+001dB,1.38143209646411e+002°)
5.75439937337161e+002	(-2.03842101625012e+001dB,1.36915740243190e+002°)
6.02559586074362e+002	(-1.96736899453395e+001dB,1.35615120450833e+002°)
6.30957344480198e+002	(-1.89714496778579e+001dB,1.34243051005616e+002°)
6.60693448007601e+002	(-1.82784254408950e+001dB,1.32802547920371e+002°)
6.91830970918941e+002	(-1.75955346283096e+001dB,1.31298388421021e+002°)
7.24435960074995e+002	(-1.69235691737453e+001dB,1.29737559568344e+002°)
7.58577575029189e+002	(-1.62630153182838e+001dB,1.28129514327230e+002°)
7.94328234724287e+002	(-1.56137890065203e+001dB,1.26485834040953e+002°)
8.31763771102677e+002	(-1.49749230263834e+001dB,1.24818666530970e+002°)
8.70963589956087e+002	(-1.43443436595364e+001dB,1.23137317495862e+002°)
9.12010839355917e+002	(-1.37190014606879e+001dB,1.21443141508642e+002°)
9.54992586021443e+002	(-1.30956250770783e+001dB,1.19724725002134e+002°)
1.00000000000001e+003	(-1.24720380217442e+001dB,1.17957161371611e+002°)
1.04712854805091e+003	(-1.18483944861621e+001dB,1.16108162101647e+002°)
1.09647819614319e+003	(-1.12274720243364e+001dB,1.14148820208138e+002°)
1.14815362149689e+003	(-1.06137862417074e+001dB,1.12062599251190e+002°)
1.20226443461742e+003	(-1.00121824394016e+001dB,1.09847784102910e+002°)
1.25892541179418e+003	(-9.42674943896787e+000dB,1.07514077669587e+002°)
1.31825673855642e+003	(-8.86039588320126e+000dB,1.05077173600656e+002°)
1.38038426460290e+003	(-8.31492946933691e+000dB,1.02554343694863e+002°)
1.44543977074594e+003	(-7.79134153048180e+000dB,9.99619669508802e+001°)
1.51356124843622e+003	(-7.29009442482011e+000dB,9.73146143950538e+001°)
1.58489319246113e+003	(-6.81133359602654e+000dB,9.46250007481198e+001°)
1.65958690743757e+003	(-6.35501902402632e+000dB,9.19042819066609e+001°)
1.73780082874939e+003	(-5.92099653389135e+000dB,8.91624138148815e+001°)
1.81970085861000e+003	(-5.50903149456089e+000dB,8.64084536621476e+001°)
1.90546071796326e+003	(-5.11882190377525e+000dB,8.36507720884977e+001°)
1.99526231496890e+003	(-4.75000177419872e+000dB,8.08971829161065e+001°)
2.08929613085406e+003	(-4.40214115575846e+000dB,7.81550091455782e+001°)
2.18776162394957e+003	(-4.07474614590032e+000dB,7.54311050179984e+001°)
2.29086765276779e+003	(-3.76726043800659e+000dB,7.27318510031541e+001°)
2.39883291901951e+003	(-3.47906892258687e+000dB,7.00631347331599e+001°)
2.51188643150960e+003	(-3.20950328798531e+000dB,6.74303273166503e+001°)
2.63026799189541e+003	(-2.95784927839450e+000dB,6.48382614770070e+001°)
2.75422870333819e+003	(-2.72335514372588e+000dB,6.22912155844463e+001°)
2.88403150312663e+003	(-2.50524079129155e+000dB,5.97929058288231e+001°)
3.01995172040204e+003	(-2.30270718240335e+000dB,5.73464874276362e+001°)
3.16227766016841e+003	(-2.11494558198148e+000dB,5.49545648077889e+001°)
3.31131121482594e+003	(-1.94114634810431e+000dB,5.26192100779861e+001°)
3.46736850452535e+003	(-1.78050702779793e+000dB,5.03419887644682e+001°)
3.63078054770105e+003	(-1.63223959438527e+000dB,4.81239916595653e+001°)
3.80189396320565e+003	(-1.49557671085060e+000dB,4.59658716644512e+001°)
3.98107170553501e+003	(-1.36977692498167e+000dB,4.38678846041678e+001°)
4.16869383470339e+003	(-1.25412869222736e+000dB,4.18299330207896e+001°)
4.36515832240170e+003	(-1.14795308971609e+000dB,3.98516117275048e+001°)
4.57088189614880e+003	(-1.05060506347698e+000dB,3.79322532433622e+001°)
4.78630092322643e+003	(-9.61473108792472e-001dB,3.60709700937791e+001°)
5.01187233627277e+003	(-8.79977509299699e-001dB,3.42666897681649e+001°)
5.24807460249778e+003	(-8.05567689185814e-001dB,3.25181779603460e+001°)
5.49540873857630e+003	(-7.37719724578009e-001dB,3.08240479799991e+001°)
5.75439937337163e+003	(-6.75935251947624e-001dB,2.91827592628071e+001°)
6.02559586074364e+003	(-6.19742534967497e-001dB,2.75926134898863e+001°)
6.30957344480200e+003	(-5.68699369956335e-001dB,2.60517587629645e+001°)
6.60693448007603e+003	(-5.22396483156466e-001dB,2.45582081110585e+001°)
6.91830970918944e+003	(-4.80459843902014e-001dB,2.31098707667786e+001°)
7.24435960074998e+003	(-4.42550991277210e-001dB,2.17045886407737e+001°)
7.58577575029192e+003	(-4.08365457075658e-001dB,2.03401696301056e+001°)
7.94328234724290e+003	(-3.77630011366451e-001dB,1.90144127264178e+001°)
8.31763771102680e+003	(-3.50099555244474e-001dB,1.77251240462131e+001°)
8.70963589956090e+003	(-3.25554236899146e-001dB,1.64701255689976e+001°)
9.12010839355919e+003	(-3.03797050219038e-001dB,1.52472591597962e+001°)
9.54992586021446e+003	(-2.84651947495179e-001dB,1.40543880786999e+001°)
1.00000000000001e+004	(-2.67962387162644e-001dB,1.28893974319261e+001°)
1.04712854805091e+004	(-2.53590209409068e-001dB,1.17501943504398e+001°)
1.09647819614320e+004	(-2.41414745225826e-001dB,1.06347082353548e+001°)
1.14815362149690e+004	(-2.31332089598191e-001dB,9.54089116508004e+000°)
1.20226443461743e+004	(-2.23254493465267e-001dB,8.46671845124150e+000°)
1.25892541179418e+004	(-2.17109847196255e-001dB,7.41018929879484e+000°)
1.31825673855642e+004	(-2.12841240289963e-001dB,6.36932753034375e+000°)
1.38038426460290e+004	(-2.10406589430700e-001dB,5.34218235259048e+000°)
1.44543977074594e+004	(-2.09778330980079e-001dB,4.32682916328124e+000°)
1.51356124843623e+004	(-2.10943176045323e-001dB,3.32137041519349e+000°)
1.58489319246113e+004	(-2.13901926826097e-001dB,2.32393656849384e+000°)
1.65958690743758e+004	(-2.18669352881086e-001dB,1.33268717410609e+000°)
1.73780082874940e+004	(-2.25274125328856e-001dB,3.45812139148792e-001°)
1.81970085861000e+004	(-2.33758806104403e-001dB,-6.38466768407430e-001°)
1.90546071796327e+004	(-2.44179888279673e-001dB,-1.62189411453021e+000°)
1.99526231496890e+004	(-2.56607882206599e-001dB,-2.60617862937068e+000°)
2.08929613085406e+004	(-2.71127440815681e-001dB,-3.59299060775020e+000°)
2.18776162394958e+004	(-2.87837515876532e-001dB,-4.58395881477002e+000°)
2.29086765276780e+004	(-3.06851535349784e-001dB,-5.58066683297340e+000°)
2.39883291901952e+004	(-3.28297590175829e-001dB,-6.58464879059217e+000°)
2.51188643150961e+004	(-3.52318616905034e-001dB,-7.59738441539404e+000°)
2.63026799189541e+004	(-3.79072560587934e-001dB,-8.62029336570142e+000°)
2.75422870333820e+004	(-4.08732500223006e-001dB,-9.65472879981039e+000°)
2.88403150312664e+004	(-4.41486716967122e-001dB,-1.07019701575164e+001°)
3.01995172040205e+004	(-4.77538683237600e-001dB,-1.17632151433044e+001°)
3.16227766016842e+004	(-5.17106948902571e-001dB,-1.28395709202772e+001°)
3.31131121482595e+004	(-5.60424899066329e-001dB,-1.39320445474323e+001°)
3.46736850452536e+004	(-6.07740356691830e-001dB,-1.50415327205720e+001°)
3.63078054770106e+004	(-6.59315002545194e-001dB,-1.61688109091184e+001°)
3.80189396320566e+004	(-7.15423585005915e-001dB,-1.73145220169095e+001°)
3.98107170553502e+004	(-7.76352893288172e-001dB,-1.84791647343449e+001°)
4.16869383470341e+004	(-8.42400469739198e-001dB,-1.96630817910607e+001°)
4.36515832240172e+004	(-9.13873040492637e-001dB,-2.08664483609869e+001°)
4.57088189614881e+004	(-9.91084648801521e-001dB,-2.20892609137499e+001°)
4.78630092322645e+004	(-1.07435448218803e+000dB,-2.33313268451029e+001°)
5.01187233627279e+004	(-1.16400439298857e+000dB,-2.45922552520553e+001°)
5.24807460249780e+004	(-1.26035612207412e+000dB,-2.58714492419121e+001°)
5.49540873857632e+004	(-1.36372824707462e+000dB,-2.71681001759480e+001°)
5.75439937337165e+004	(-1.47443288917423e+000dB,-2.84811842439528e+001°)
6.02559586074366e+004	(-1.59277222586645e+000dB,-2.98094617430374e+001°)
6.30957344480202e+004	(-1.71903487031377e+000dB,-3.11514793905362e+001°)
6.60693448007605e+004	(-1.85349219039361e+000dB,-3.25055759355448e+001°)
6.91830970918946e+004	(-1.99639465119545e+000dB,-3.38698912469952e+001°)
7.24435960075000e+004	(-2.14796827283076e+000dB,-3.52423789501489e+001°)
7.58577575029194e+004	(-2.30841129996825e+000dB,-3.66208225620988e+001°)
7.94328234724293e+004	(-2.47789117996126e+000dB,-3.80028549453458e+001°)
8.31763771102683e+004	(-2.65654194214094e+000dB,-3.93859807645841e+001°)
8.70963589956093e+004	(-2.84446206181608e+000dB,-4.07676015026088e+001°)
9.12010839355923e+004	(-3.04171287875242e+000dB,-4.21450424763738e+001°)
9.54992586021450e+004	(-3.24831762217541e+000dB,-4.35155812001884e+001°)
1.00000000000001e+005	(-3.46426107332990e+000dB,-4.48764763783884e+001°)
1.04712854805091e+005	(-3.68948987375496e+000dB,-4.62249967779162e+001°)
1.09647819614320e+005	(-3.92391346386660e+000dB,-4.75584492359174e+001°)
1.14815362149690e+005	(-4.16740561379921e+000dB,-4.88742050976154e+001°)
1.20226443461743e+005	(-4.41980648794164e+000dB,-5.01697244532049e+001°)
1.25892541179419e+005	(-4.68092516754070e+000dB,-5.14425776434885e+001°)
1.31825673855643e+005	(-4.95054254285845e+000dB,-5.26904636261042e+001°)
1.38038426460291e+005	(-5.22841447835441e+000dB,-5.39112249284652e+001°)
1.44543977074595e+005	(-5.51427515122443e+000dB,-5.51028590523855e+001°)
1.51356124843623e+005	(-5.80784046530972e+000dB,-5.62635263296510e+001°)
1.58489319246114e+005	(-6.10881144829356e+000dB,-5.73915543514903e+001°)
1.65958690743759e+005	(-6.41687754958104e+000dB,-5.84854392013647e+001°)
1.73780082874940e+005	(-6.73171976840882e+000dB,-5.95438438065707e+001°)
1.81970085861001e+005	(-7.05301355566715e+000dB,-6.05655937870652e+001°)
1.90546071796328e+005	(-7.38043144769979e+000dB,-6.15496712194631e+001°)
1.99526231496891e+005	(-7.71364540518911e+000dB,-6.24952067508430e+001°)
2.08929613085407e+005	(-8.05232884436532e+000dB,-6.34014704929928e+001°)
2.18776162394959e+005	(-8.39615836067040e+000dB,-6.42678621052918e+001°)
2.29086765276781e+005	(-8.74481515613996e+000dB,-6.50939004373181e+001°)
2.39883291901953e+005	(-9.09798619089786e+000dB,-6.58792130532807e+001°)
2.51188643150962e+005	(-9.45536508601447e+000dB,-6.66235259036612e+001°)
2.63026799189542e+005	(-9.81665280955190e+000dB,-6.73266533480467e+001°)
2.75422870333821e+005	(-1.01815581798689e+001dB,-6.79884886707506e+001°)
2.88403150312665e+005	(-1.05497982203221e+001dB,-6.86089951706672e+001°)
3.01995172040206e+005	(-1.09210983975969e+001dB,-6.91881978514557e+001°)
3.16227766016843e+005	(-1.12951927722734e+001dB,-6.97261756907828e+001°)
3.31131121482596e+005	(-1.16718240852949e+001dB,-7.02230544294060e+001°)
3.46736850452537e+005	(-1.20507437981435e+001dB,-7.06789997944610e+001°)
3.63078054770107e+005	(-1.24317120982293e+001dB,-7.10942110565751e+001°)
3.80189396320567e+005	(-1.28144978747547e+001dB,-7.14689148178658e+001°)
3.98107170553504e+005	(-1.31988786645405e+001dB,-7.18033589361249e+001°)
4.16869383470342e+005	(-1.35846405624715e+001dB,-7.20978065083964e+001°)
4.36515832240173e+005	(-1.39715780875644e+001dB,-7.23525298617564e+001°)
4.57088189614883e+005	(-1.43594939934336e+001dB,-7.25678045283253e+001°)
4.78630092322646e+005	(-1.47481990111507e+001dB,-7.27439032118698e+001°)
5.01187233627281e+005	(-1.51375115130955e+001dB,-7.28810897825479e+001°)
5.24807460249781e+005	(-1.55272570881923e+001dB,-7.29796133614324e+001°)
5.49540873857634e+005	(-1.59172680216063e+001dB,-7.30397025762102e+001°)
5.75439937337167e+005	(-1.63073826752486e+001dB,-7.30615600823160e+001°)
6.02559586074368e+005	(-1.66974447689103e+001dB,-7.30453574498673e+001°)
6.30957344480204e+005	(-1.70873025652341e+001dB,-7.29912305162364e+001°)
6.60693448007607e+005	(-1.74768079647631e+001dB,-7.28992752980140e+001°)
6.91830970918948e+005	(-1.78658155197818e+001dB,-7.27695445459036e+001°)
7.24435960075003e+005	(-1.82541813775013e+001dB,-7.26020450132101e+001°)
7.58577575029197e+005	(-1.86417621643051e+001dB,-7.23967354945896e+001°)
7.94328234724295e+005	(-1.90284138233186e+001dB,-7.21535256781116e+001°)
8.31763771102686e+005	(-1.94139904175892e+001dB,-7.18722758413438e+001°)
8.70963589956096e+005	(-1.97983429108220e+001dB,-7.15527974121583e+001°)
9.12010839355926e+005	(-2.01813179370233e+001dB,-7.11948544074594e+001°)
9.54992586021453e+005	(-2.05627565697647e+001dB,-7.07981657582582e+001°)
1.00000000000000e+006	(-2.09424931011930e+001dB,-7.03624085273664e+001°)
Step Information: Run=2  (Run: 2/40)
1.00000000000000e+001	(-7.14477516638649e+001dB,9.75566082619221e+001°)
1.04712854805090e+001	(-7.10390498985818e+001dB,9.79068912291566e+001°)
1.09647819614319e+001	(-7.06295287699699e+001dB,9.82728329555813e+001°)
1.14815362149688e+001	(-7.02191131996440e+001dB,9.86550498455673e+001°)
1.20226443461741e+001	(-6.98077216362291e+001dB,9.90541704177063e+001°)
1.25892541179417e+001	(-6.93952655766012e+001dB,9.94708336312284e+001°)
1.31825673855641e+001	(-6.89816490673859e+001dB,9.99056868645555e+001°)
1.38038426460289e+001	(-6.85667681892713e+001dB,1.00359383504425e+002°)
1.44543977074593e+001	(-6.81505105275855e+001dB,1.00832580101516e+002°)
1.51356124843621e+001	(-6.77327546336430e+001dB,1.01325933046417e+002°)
1.58489319246111e+001	(-6.73133694825666e+001dB,1.01840094718327e+002°)
1.65958690743756e+001	(-6.68922139346772e+001dB,1.02375709058216e+002°)
1.73780082874938e+001	(-6.64691362090913e+001dB,1.02933406518718e+002°)
1.81970085860999e+001	(-6.60439733798925e+001dB,1.03513798344910e+002°)
1.90546071796325e+001	(-6.56165509071167e+001dB,1.04117470143922e+002°)
1.99526231496888e+001	(-6.51866822168124e+001dB,1.04744974707216e+002°)
2.08929613085404e+001	(-6.47541683465380e+001dB,1.05396824057966e+002°)
2.18776162394956e+001	(-6.43187976748141e+001dB,1.06073480707589e+002°)
2.29086765276778e+001	(-6.38803457551573e+001dB,1.06775348120587e+002°)
2.39883291901949e+001	(-6.34385752773001e+001dB,1.07502760405877e+002°)
2.51188643150958e+001	(-6.29932361799173e+001dB,1.08255971275942e+002°)
2.63026799189539e+001	(-6.25440659404807e+001dB,1.09035142342645e+002°)
2.75422870333817e+001	(-6.20907900685795e+001dB,1.09840330850400e+002°)
2.88403150312661e+001	(-6.16331228289715e+001dB,1.10671476983211e+002°)
