Freq.	V(notch)
Step Information: Run=1  (Run: 1/40)
1.00000000000000e+001	(-2.20682259001970e-004dB,-3.72060110628587e-001°)
1.04712854805090e+001	(-2.41977280227862e-004dB,-3.89597817008289e-001°)
1.09647819614319e+001	(-2.65327614845178e-004dB,-4.07962502471088e-001°)
1.14815362149688e+001	(-2.90931719285588e-004dB,-4.27193208383917e-001°)
1.20226443461741e+001	(-3.19007229774202e-004dB,-4.47330826012508e-001°)
1.25892541179417e+001	(-3.49792819477685e-004dB,-4.68418185177277e-001°)
1.31825673855641e+001	(-3.83550236129139e-004dB,-4.90500147305852e-001°)
1.38038426460289e+001	(-4.20566537933746e-004dB,-5.13623703121863e-001°)
1.44543977074593e+001	(-4.61156547105158e-004dB,-5.37838075225721e-001°)
1.51356124843621e+001	(-5.05665542479997e-004dB,-5.63194825840699e-001°)
1.58489319246111e+001	(-5.54472214750365e-004dB,-5.89747970016882e-001°)
1.65958690743756e+001	(-6.07991910248067e-004dB,-6.17554094606620e-001°)
1.73780082874938e+001	(-6.66680191724732e-004dB,-6.46672483348316e-001°)
1.81970085860999e+001	(-7.31036747649988e-004dB,-6.77165248420887e-001°)
1.90546071796325e+001	(-8.01609684604020e-004dB,-7.09097468859430e-001°)
1.99526231496888e+001	(-8.79000240899422e-004dB,-7.42537336253727e-001°)
2.08929613085404e+001	(-9.63867963568761e-004dB,-7.77556308185804e-001°)
2.18776162394956e+001	(-1.05693639515123e-003dB,-8.14229269901066e-001°)
2.29086765276778e+001	(-1.15899932154305e-003dB,-8.52634704750224e-001°)
2.39883291901949e+001	(-1.27092763758614e-003dB,-8.92854873986820e-001°)
2.51188643150958e+001	(-1.39367689301070e-003dB,-9.34976006558356e-001°)
2.63026799189539e+001	(-1.52829558805832e-003dB,-9.79088499588571e-001°)
2.75422870333817e+001	(-1.67593429549239e-003dB,-1.02528713031519e+000°)
2.88403150312661e+001	(-1.83785569402324e-003dB,-1.07367128032254e+000°)
3.01995172040202e+001	(-2.01544560747333e-003dB,-1.12434517299300e+000°)
3.16227766016838e+001	(-2.21022515442819e-003dB,-1.17741812519631e+000°)
3.31131121482592e+001	(-2.42386412470150e-003dB,-1.23300481434370e+000°)
3.46736850452532e+001	(-2.65819571224107e-003dB,-1.29122556205525e+000°)
3.63078054770102e+001	(-2.91523274867290e-003dB,-1.35220663582712e+000°)
3.80189396320562e+001	(-3.19718559860923e-003dB,-1.41608057024158e+000°)
3.98107170553498e+001	(-3.50648189643014e-003dB,-1.48298650944079e+000°)
4.16869383470336e+001	(-3.84578832597125e-003dB,-1.55307057278783e+000°)
4.36515832240167e+001	(-4.21803466847058e-003dB,-1.62648624586888e+000°)
4.57088189614876e+001	(-4.62644037205527e-003dB,-1.70339479925405e+000°)
4.78630092322639e+001	(-5.07454392744371e-003dB,-1.78396573773480e+000°)
5.01187233627273e+001	(-5.56623537059207e-003dB,-1.86837728310035e+000°)
5.24807460249774e+001	(-6.10579227453960e-003dB,-1.95681689390925e+000°)
5.49540873857626e+001	(-6.69791964004214e-003dB,-2.04948182616488e+000°)
5.75439937337158e+001	(-7.34779414959391e-003dB,-2.14657973932248e+000°)
6.02559586074359e+001	(-8.06111331276208e-003dB,-2.24832935265264e+000°)
6.30957344480195e+001	(-8.84415010412169e-003dB,-2.35496115767354e+000°)
6.60693448007598e+001	(-9.70381378076246e-003dB,-2.46671819315682e+000°)
6.91830970918938e+001	(-1.06477176655440e-002dB,-2.58385689012688e+000°)
7.24435960074992e+001	(-1.16842547991389e-002dB,-2.70664799533121e+000°)
7.58577575029186e+001	(-1.28226825000927e-002dB,-2.83537758288331e+000°)
7.94328234724284e+001	(-1.40732170331578e-002dB,-2.97034816519973e+000°)
8.31763771102674e+001	(-1.54471397755336e-002dB,-3.11187991599987e+000°)
8.70963589956084e+001	(-1.69569164952024e-002dB,-3.26031202005390e+000°)
9.12010839355913e+001	(-1.86163316221356e-002dB,-3.41600416659531e+000°)
9.54992586021439e+001	(-2.04406397106127e-002dB,-3.57933820591828e+000°)
1.00000000000000e+002	(-2.24467366706129e-002dB,-3.75071999172231e+000°)
1.04712854805090e+002	(-2.46533538012143e-002dB,-3.93058143532877e+000°)
1.09647819614319e+002	(-2.70812782068952e-002dB,-4.11938280207215e+000°)
1.14815362149689e+002	(-2.97536038388046e-002dB,-4.31761528507972e+000°)
1.20226443461742e+002	(-3.26960182044818e-002dB,-4.52580389743690e+000°)
1.25892541179417e+002	(-3.59371307641607e-002dB,-4.74451073056207e+000°)
1.31825673855641e+002	(-3.95088502212177e-002dB,-4.97433863468911e+000°)
1.38038426460289e+002	(-4.34468193720138e-002dB,-5.21593538692941e+000°)
1.44543977074593e+002	(-4.77909179733718e-002dB,-5.46999842376233e+000°)
1.51356124843621e+002	(-5.25858463005237e-002dB,-5.73728022835566e+000°)
1.58489319246112e+002	(-5.78818048151876e-002dB,-6.01859447930401e+000°)
1.65958690743757e+002	(-6.37352887853959e-002dB,-6.31482308674999e+000°)
1.73780082874938e+002	(-7.02100209805443e-002dB,-6.62692426511054e+000°)
1.81970085860999e+002	(-7.73780509489044e-002dB,-6.95594181961502e+000°)
1.90546071796326e+002	(-8.53210561864105e-002dB,-7.30301585761554e+000°)
1.99526231496889e+002	(-9.41318891424912e-002dB,-7.66939517643951e+000°)
2.08929613085405e+002	(-1.03916425034354e-001dB,-8.05645162900613e+000°)
2.18776162394956e+002	(-1.14795779593826e-001dB,-8.46569682846953e+000°)
2.29086765276778e+002	(-1.26908984141845e-001dB,-8.89880162617763e+000°)
2.39883291901950e+002	(-1.40416229115898e-001dB,-9.35761888616617e+000°)
2.51188643150959e+002	(-1.55502818188194e-001dB,-9.84421018778013e+000°)
2.63026799189540e+002	(-1.72384015908083e-001dB,-1.03608772200613e+001°)
2.75422870333818e+002	(-1.91311025832499e-001dB,-1.09101987922208e+001°)
2.88403150312662e+002	(-2.12578408175629e-001dB,-1.14950745794627e+001°)
3.01995172040203e+002	(-2.36533342847451e-001dB,-1.21187769586952e+001°)
3.16227766016840e+002	(-2.63587274879552e-001dB,-1.27850125700991e+001°)
3.31131121482593e+002	(-2.94230658226004e-001dB,-1.34979955724007e+001°)
3.46736850452534e+002	(-3.29051760289642e-001dB,-1.42625349420747e+001°)
3.63078054770104e+002	(-3.68760831569016e-001dB,-1.50841385903265e+001°)
3.80189396320564e+002	(-4.14221423995720e-001dB,-1.59691375085767e+001°)
3.98107170553500e+002	(-4.66491319093008e-001dB,-1.69248335392098e+001°)
4.16869383470338e+002	(-5.26876494447980e-001dB,-1.79596745716793e+001°)
4.36515832240169e+002	(-5.97002951924979e-001dB,-1.90834607273434e+001°)
4.57088189614878e+002	(-6.78913263352004e-001dB,-2.03075839314427e+001°)
4.78630092322641e+002	(-7.75197682010248e-001dB,-2.16453002657318e+001°)
5.01187233627276e+002	(-8.89174124039685e-001dB,-2.31120279605772e+001°)
5.24807460249776e+002	(-1.02513803640284e+000dB,-2.47256506959873e+001°)
5.49540873857628e+002	(-1.18871340984181e+000dB,-2.65067802485010e+001°)
5.75439937337161e+002	(-1.38735205077341e+000dB,-2.84788836630265e+001°)
6.02559586074362e+002	(-1.63105321514420e+000dB,-3.06680877563916e+001°)
6.30957344480198e+002	(-1.93341604891775e+000dB,-3.31022990132367e+001°)
6.60693448007601e+002	(-2.31320471667955e+000dB,-3.58089430486428e+001°)
6.91830970918941e+002	(-2.79672489817267e+000dB,-3.88099746444663e+001°)
7.24435960074995e+002	(-3.42153632282663e+000dB,-4.21114709201176e+001°)
7.58577575029189e+002	(-4.24250234725358e+000dB,-4.56821379386225e+001°)
7.94328234724287e+002	(-5.34230731468974e+000dB,-4.94074531666152e+001°)
8.31763771102677e+002	(-6.85157219585281e+000dB,-5.29827336114867e+001°)
8.70963589956087e+002	(-8.99229976139831e+000dB,-5.56175440884221e+001°)
9.12010839355917e+002	(-1.21800344800965e+001dB,-5.49591881857930e+001°)
9.54992586021443e+002	(-1.71041620405562e+001dB,-4.14277269103280e+001°)
1.00000000000001e+003	(-1.99673862131780e+001dB,1.45269518542582e+001°)
1.04712854805091e+003	(-1.46924571939766e+001dB,4.92681626556026e+001°)
1.09647819614319e+003	(-1.06298772919105e+001dB,5.48065518302959e+001°)
1.14815362149689e+003	(-7.98826754319508e+000dB,5.35456920094627e+001°)
1.20226443461742e+003	(-6.17343931794568e+000dB,5.03862839236966e+001°)
1.25892541179418e+003	(-4.87421392832649e+000dB,4.67357864693257e+001°)
1.31825673855642e+003	(-3.91719600302221e+000dB,4.31059599646862e+001°)
1.38038426460290e+003	(-3.19672252325266e+000dB,3.96954529789834e+001°)
1.44543977074594e+003	(-2.64438742407954e+000dB,3.65728712571755e+001°)
1.51356124843622e+003	(-2.21413113412855e+000dB,3.37488410519348e+001°)
1.58489319246113e+003	(-1.87408669244660e+000dB,3.12083286492403e+001°)
1.65958690743757e+003	(-1.60174573142140e+000dB,2.89260588667409e+001°)
1.73780082874939e+003	(-1.38093474366942e+000dB,2.68739745491404e+001°)
1.81970085861000e+003	(-1.19985531114810e+000dB,2.50247496577815e+001°)
1.90546071796326e+003	(-1.04978179452033e+000dB,2.33533089614281e+001°)
1.99526231496890e+003	(-9.24179107072100e-001dB,2.18373463307171e+001°)
2.08929613085406e+003	(-8.18095314985469e-001dB,2.04573549142851e+001°)
2.18776162394957e+003	(-7.27737335333385e-001dB,1.91964353994258e+001°)
2.29086765276779e+003	(-6.50170501726510e-001dB,1.80400188185938e+001°)
2.39883291901951e+003	(-5.83103092123951e-001dB,1.69755718456497e+001°)
2.51188643150960e+003	(-5.24729896295241e-001dB,1.59923164696499e+001°)
2.63026799189541e+003	(-4.73617329628808e-001dB,1.50809772194395e+001°)
2.75422870333819e+003	(-4.28618146889951e-001dB,1.42335596713112e+001°)
2.88403150312663e+003	(-3.88807503191450e-001dB,1.34431594630767e+001°)
3.01995172040204e+003	(-3.53434595843825e-001dB,1.27037991167501e+001°)
3.16227766016841e+003	(-3.21885811544748e-001dB,1.20102893753024e+001°)
3.31131121482594e+003	(-2.93656463778937e-001dB,1.13581118119375e+001°)
3.46736850452535e+003	(-2.68329007294420e-001dB,1.07433198184891e+001°)
3.63078054770105e+003	(-2.45556171627721e-001dB,1.01624555377030e+001°)
3.80189396320565e+003	(-2.25047835459706e-001dB,9.61248076739772e+000°)
3.98107170553501e+003	(-2.06560713927830e-001dB,9.09072024809042e+000°)
4.16869383470339e+003	(-1.89890083958571e-001dB,8.59481594154393e+000°)
4.36515832240170e+003	(-1.74862859883064e-001dB,8.12269076385232e+000°)
4.57088189614880e+003	(-1.61331401543956e-001dB,7.67251959435189e+000°)
4.78630092322643e+003	(-1.49167567535776e-001dB,7.24270423236941e+000°)
5.01187233627277e+003	(-1.38256811443524e-001dB,6.83184774917437e+000°)
5.24807460249778e+003	(-1.28492597792249e-001dB,6.43872348224441e+000°)
5.49540873857630e+003	(-1.19771949090517e-001dB,6.06223615116658e+000°)
5.75439937337163e+003	(-1.11993164177917e-001dB,5.70137759218661e+000°)
6.02559586074364e+003	(-1.05056303796048e-001dB,5.35518517991982e+000°)
6.30957344480200e+003	(-9.88659857995566e-002dB,5.02271293931134e+000°)
6.60693448007603e+003	(-9.33350294004235e-002dB,4.70302118813570e+000°)
6.91830970918944e+003	(-8.83872791557681e-002dB,4.39518272774929e+000°)
7.24435960074998e+003	(-8.39586302661108e-002dB,4.09829761114951e+000°)
7.58577575029192e+003	(-7.99962766701285e-002dB,3.81150774912707e+000°)
7.94328234724290e+003	(-7.64568590985897e-002dB,3.53400597245235e+000°)
8.31763771102680e+003	(-7.33042987881084e-002dB,3.26503835216659e+000°)
8.70963589956090e+003	(-7.05078624405927e-002dB,3.00390127143943e+000°)
9.12010839355919e+003	(-6.80406939822441e-002dB,2.74993556013648e+000°)
9.54992586021446e+003	(-6.58788266376233e-002dB,2.50251965491426e+000°)
1.00000000000001e+004	(-6.40005826940044e-002dB,2.26106302331277e+000°)
1.04712854805091e+004	(-6.23862438800961e-002dB,2.02500044363549e+000°)
1.09647819614320e+004	(-6.10178908848370e-002dB,1.79378730528534e+000°)
1.14815362149690e+004	(-5.98793380262269e-002dB,1.56689586746825e+000°)
1.20226443461743e+004	(-5.89561148341097e-002dB,1.34381232171652e+000°)
1.25892541179418e+004	(-5.82354658574918e-002dB,1.12403448555940e+000°)
1.31825673855642e+004	(-5.77063532280842e-002dB,9.07069970785901e-001°)
1.38038426460290e+004	(-5.73594548151918e-002dB,6.92434697558252e-001°)
1.44543977074594e+004	(-5.71871556689409e-002dB,4.79651654269761e-001°)
1.51356124843623e+004	(-5.71835331406282e-002dB,2.68249828087312e-001°)
1.58489319246113e+004	(-5.73443373864115e-002dB,5.77632514322630e-002°)
1.65958690743758e+004	(-5.76669695178119e-002dB,-1.52269874547053e-001°)
1.73780082874940e+004	(-5.81504597489695e-002dB,-3.62308006459079e-001°)
1.81970085861000e+004	(-5.87954477608086e-002dB,-5.72807053106867e-001°)
1.90546071796327e+004	(-5.96041672301586e-002dB,-7.84221149286435e-001°)
1.99526231496890e+004	(-6.05804361851512e-002dB,-9.97003415584143e-001°)
2.08929613085406e+004	(-6.17296545264469e-002dB,-1.21160670742784e+000°)
2.18776162394958e+004	(-6.30588097783300e-002dB,-1.42848435430750e+000°)
2.29086765276780e+004	(-6.45764918716702e-002dB,-1.64809088856599e+000°)
2.39883291901952e+004	(-6.62929175564317e-002dB,-1.87088276220282e+000°)
2.51188643150961e+004	(-6.82199648555308e-002dB,-2.09731904967300e+000°)
2.63026799189541e+004	(-7.03712178588848e-002dB,-2.32786213448064e+000°)
2.75422870333820e+004	(-7.27620220561493e-002dB,-2.56297837745326e+000°)
2.88403150312664e+004	(-7.54095503726415e-002dB,-2.80313876479479e+000°)
3.01995172040205e+004	(-7.83328800633955e-002dB,-3.04881953434293e+000°)
3.16227766016842e+004	(-8.15530806628924e-002dB,-3.30050277879792e+000°)
3.31131121482595e+004	(-8.50933132665622e-002dB,-3.55867702501747e+000°)
3.46736850452536e+004	(-8.89789415457107e-002dB,-3.82383778871798e+000°)
3.63078054770106e+004	(-9.32376550511132e-002dB,-4.09648810403123e+000°)
3.80189396320566e+004	(-9.78996055807949e-002dB,-4.37713902724018e+000°)
3.98107170553502e+004	(-1.02997557621303e-001dB,-4.66631011360036e+000°)
4.16869383470341e+004	(-1.08567054147793e-001dB,-4.96452986536071e+000°)
4.36515832240172e+004	(-1.14646599383852e-001dB,-5.27233614775161e+000°)
4.57088189614881e+004	(-1.21277860426501e-001dB,-5.59027656783350e+000°)
4.78630092322645e+004	(-1.28505889962406e-001dB,-5.91890880844340e+000°)
5.01187233627279e+004	(-1.36379372575326e-001dB,-6.25880090610419e+000°)
5.24807460249780e+004	(-1.44950897376304e-001dB,-6.61053145747234e+000°)
5.49540873857632e+004	(-1.54277259807324e-001dB,-6.97468973381782e+000°)
5.75439937337165e+004	(-1.64419795460110e-001dB,-7.35187567708964e+000°)
6.02559586074366e+004	(-1.75444748568366e-001dB,-7.74269974450610e+000°)
6.30957344480202e+004	(-1.87423677420976e-001dB,-8.14778256152662e+000°)
6.60693448007605e+004	(-2.00433898286214e-001dB,-8.56775433573359e+000°)
6.91830970918946e+004	(-2.14558968493974e-001dB,-9.00325397705391e+000°)
7.24435960075000e+004	(-2.29889208100258e-001dB,-9.45492786315637e+000°)
7.58577575029194e+004	(-2.46522258020342e-001dB,-9.92342818343280e+000°)
7.94328234724293e+004	(-2.64563670753365e-001dB,-1.04094107909361e+001°)
8.31763771102683e+004	(-2.84127527789494e-001dB,-1.09135324896556e+001°)
8.70963589956093e+004	(-3.05337075625582e-001dB,-1.14364476847364e+001°)
9.12010839355923e+004	(-3.28325370013916e-001dB,-1.19788043260612e+001°)
9.54992586021450e+004	(-3.53235915763272e-001dB,-1.25412390810670e+001°)
1.00000000000001e+005	(-3.80223287118100e-001dB,-1.31243716808541e+001°)
1.04712854805091e+005	(-4.09453711561261e-001dB,-1.37287983944315e+001°)
1.09647819614320e+005	(-4.41105597848469e-001dB,-1.43550845993166e+001°)
1.14815362149690e+005	(-4.75369987235095e-001dB,-1.50037564324161e+001°)
1.20226443461743e+005	(-5.12450905230132e-001dB,-1.56752915232052e+001°)
1.25892541179419e+005	(-5.52565589845790e-001dB,-1.63701088316364e+001°)
1.31825673855643e+005	(-5.95944571214306e-001dB,-1.70885576359838e+001°)
1.38038426460291e+005	(-6.42831576719697e-001dB,-1.78309057411595e+001°)
1.44543977074595e+005	(-6.93483235454617e-001dB,-1.85973270061077e+001°)
1.51356124843623e+005	(-7.48168556043952e-001dB,-1.93878883196204e+001°)
1.58489319246114e+005	(-8.07168152756176e-001dB,-2.02025361875798e+001°)
1.65958690743759e+005	(-8.70773196577580e-001dB,-2.10410831305186e+001°)
1.73780082874940e+005	(-9.39284070710439e-001dB,-2.19031941281765e+001°)
1.81970085861001e+005	(-1.01300871400351e+000dB,-2.27883733859438e+001°)
1.90546071796328e+005	(-1.09226064128026e+000dB,-2.36959517352831e+001°)
1.99526231496891e+005	(-1.17735663655014e+000dB,-2.46250750139936e+001°)
2.08929613085407e+005	(-1.26861412370802e+000dB,-2.55746937999482e+001°)
2.18776162394959e+005	(-1.36634822950129e+000dB,-2.65435548904937e+001°)
2.29086765276781e+005	(-1.47086856505292e+000dB,-2.75301949257755e+001°)
2.39883291901953e+005	(-1.58247576475613e+000dB,-2.85329365447109e+001°)
2.51188643150962e+005	(-1.70145783434060e+000dB,-2.95498874343280e+001°)
2.63026799189542e+005	(-1.82808637271501e+000dB,-3.05789425846082e+001°)
2.75422870333821e+005	(-1.96261274399268e+000dB,-3.16177899912576e+001°)
2.88403150312665e+005	(-2.10526428600998e+000dB,-3.26639199582252e+001°)
3.01995172040206e+005	(-2.25624064880513e+000dB,-3.37146380429696e+001°)
3.16227766016843e+005	(-2.41571036004247e+000dB,-3.47670815644435e+001°)
3.31131121482596e+005	(-2.58380771366598e+000dB,-3.58182394624060e+001°)
3.46736850452537e+005	(-2.76063007264081e+000dB,-3.68649751642708e+001°)
3.63078054770107e+005	(-2.94623566650134e+000dB,-3.79040519904624e+001°)
3.80189396320567e+005	(-3.14064194973880e+000dB,-3.89321605193416e+001°)
3.98107170553504e+005	(-3.34382456855193e+000dB,-3.99459472461693e+001°)
4.16869383470342e+005	(-3.55571696206873e+000dB,-4.09420438136331e+001°)
4.36515832240173e+005	(-3.77621060109989e+000dB,-4.19170960684599e+001°)
4.57088189614883e+005	(-4.00515584416837e+000dB,-4.28677922116762e+001°)
4.78630092322646e+005	(-4.24236336841546e+000dB,-4.37908893582238e+001°)
5.01187233627281e+005	(-4.48760611330295e+000dB,-4.46832379014996e+001°)
5.24807460249781e+005	(-4.74062165893240e+000dB,-4.55418031842540e+001°)
5.49540873857634e+005	(-5.00111494905935e+000dB,-4.63636841019799e+001°)
5.75439937337167e+005	(-5.26876126192519e+000dB,-4.71461283999310e+001°)
6.02559586074368e+005	(-5.54320932992986e+000dB,-4.78865445623087e+001°)
6.30957344480204e+005	(-5.82408451162628e+000dB,-4.85825103237557e+001°)
6.60693448007607e+005	(-6.11099192600306e+000dB,-4.92317779528564e+001°)
6.91830970918948e+005	(-6.40351946875841e+000dB,-4.98322765598130e+001°)
7.24435960075003e+005	(-6.70124064237121e+000dB,-5.03821117624298e+001°)
7.58577575029197e+005	(-7.00371714542576e+000dB,-5.08795631048922e+001°)
7.94328234724295e+005	(-7.31050118091265e+000dB,-5.13230796623189e+001°)
8.31763771102686e+005	(-7.62113745744276e+000dB,-5.17112742821426e+001°)
8.70963589956096e+005	(-7.93516487087364e+000dB,-5.20429169135570e+001°)
9.12010839355926e+005	(-8.25211786627936e+000dB,-5.23169274609585e+001°)
9.54992586021453e+005	(-8.57152749127558e+000dB,-5.25323685699287e+001°)
1.00000000000000e+006	(-8.89292216124131e+000dB,-5.26884387176245e+001°)
Step Information: Run=2  (Run: 2/40)
1.00000000000000e+001	(-2.20155222014252e-004dB,-3.69529310709837e-001°)
1.04712854805090e+001	(-2.41398489926241e-004dB,-3.86947054459702e-001°)
1.09647819614319e+001	(-2.64691894927996e-004dB,-4.05186021427399e-001°)
1.14815362149688e+001	(-2.90233356963793e-004dB,-4.24284966568091e-001°)
1.20226443461741e+001	(-3.18239916526765e-004dB,-4.44284478992362e-001°)
1.25892541179417e+001	(-3.48949584534674e-004dB,-4.65227069547184e-001°)
1.31825673855641e+001	(-3.82623371747863e-004dB,-4.87157262693454e-001°)
1.38038426460289e+001	(-4.19547515239942e-004dB,-5.10121692907666e-001°)
1.44543977074593e+001	(-4.60035921182191e-004dB,-5.34169205849710e-001°)
1.51356124843621e+001	(-5.04432845129238e-004dB,-5.59350964554522e-001°)
1.58489319246111e+001	(-5.53115833078307e-004dB,-5.85720560922305e-001°)
1.65958690743756e+001	(-6.06498948934272e-004dB,-6.13334132800678e-001°)
1.73780082874938e+001	(-6.65036316487400e-004dB,-6.42250486972403e-001°)
1.81970085860999e+001	(-7.29226006968896e-004dB,-6.72531228384580e-001°)
1.90546071796325e+001	(-7.99614306210673e-004dB,-7.04240895979580e-001°)
1.99526231496888e+001	(-8.76800399033685e-004dB,-7.37447105514813e-001°)
2.08929613085404e+001	(-9.61441512207647e-004dB,-7.72220699787989e-001°)
2.18776162394956e+001	(-1.05425856157041e-003dB,-8.08635906717139e-001°)
2.29086765276778e+001	(-1.15604235354852e-003dB,-8.46770505760805e-001°)
2.39883291901949e+001	(-1.26766039655292e-003dB,-8.86706003203832e-001°)
2.51188643150958e+001	(-1.39006438342132e-003dB,-9.28527816878737e-001°)
2.63026799189539e+001	(-1.52429841242243e-003dB,-9.72325470942161e-001°)
