Freq.	V(lp)
Step Information: Run=1  (Run: 1/40)
1.00000000000000e+001	(-9.59280006790666e-005dB,-2.12243572959032e-001°)
1.04712854805090e+001	(-1.01005071534418e-004dB,-2.22246331922540e-001°)
1.09647819614319e+001	(-1.06572019032004e-004dB,-2.32720510471822e-001°)
1.14815362149688e+001	(-1.12676115712078e-004dB,-2.43688326531749e-001°)
1.20226443461741e+001	(-1.19369196909728e-004dB,-2.55173045215236e-001°)
1.25892541179417e+001	(-1.26708101427725e-004dB,-2.67199028188945e-001°)
1.31825673855641e+001	(-1.34755154659594e-004dB,-2.79791785367483e-001°)
1.38038426460289e+001	(-1.43578698709062e-004dB,-2.92978029046134e-001°)
1.44543977074593e+001	(-1.53253673446870e-004dB,-3.06785730587363e-001°)
1.51356124843621e+001	(-1.63862253896836e-004dB,-3.21244179781849e-001°)
1.58489319246111e+001	(-1.75494549366850e-004dB,-3.36384047010516e-001°)
1.65958690743756e+001	(-1.88249370311187e-004dB,-3.52237448340084e-001°)
1.73780082874938e+001	(-2.02235069010762e-004dB,-3.68838013690972e-001°)
1.81970085860999e+001	(-2.17570462265218e-004dB,-3.86220958222992e-001°)
1.90546071796325e+001	(-2.34385842991176e-004dB,-4.04423157091280e-001°)
1.99526231496888e+001	(-2.52824090034424e-004dB,-4.23483223732127e-001°)
2.08929613085404e+001	(-2.73041885703467e-004dB,-4.43441591846117e-001°)
2.18776162394956e+001	(-2.95211051200559e-004dB,-4.64340601253933e-001°)
2.29086765276778e+001	(-3.19520011786890e-004dB,-4.86224587808684e-001°)
2.39883291901949e+001	(-3.46175404196076e-004dB,-5.09139977557430e-001°)
2.51188643150958e+001	(-3.75403840185482e-004dB,-5.33135385353915e-001°)
2.63026799189539e+001	(-4.07453841587586e-004dB,-5.58261718134254e-001°)
2.75422870333817e+001	(-4.42597964040571e-004dB,-5.84572283077632e-001°)
2.88403150312661e+001	(-4.81135126623988e-004dB,-6.12122900884839e-001°)
3.01995172040202e+001	(-5.23393169699692e-004dB,-6.40972024418848e-001°)
3.16227766016838e+001	(-5.69731661444976e-004dB,-6.71180862963561e-001°)
3.31131121482592e+001	(-6.20544979167697e-004dB,-7.02813512369444e-001°)
3.46736850452532e+001	(-6.76265691455075e-004dB,-7.35937091368001e-001°)
3.63078054770102e+001	(-7.37368271970654e-004dB,-7.70621884350975e-001°)
3.80189396320562e+001	(-8.04373177084735e-004dB,-8.06941490924855e-001°)
3.98107170553498e+001	(-8.77851324295524e-004dB,-8.44972982566779e-001°)
4.16869383470336e+001	(-9.58429011063472e-004dB,-8.84797066724241e-001°)
4.36515832240167e+001	(-1.04679331882675e-003dB,-9.26498258718273e-001°)
4.57088189614876e+001	(-1.14369805027026e-003dB,-9.70165061827981e-001°)
4.78630092322639e+001	(-1.24997025513568e-003dB,-1.01589015595358e+000°)
5.01187233627273e+001	(-1.36651740298665e-003dB,-1.06377059527538e+000°)
5.24807460249774e+001	(-1.49433527033985e-003dB,-1.11390801534782e+000°)
5.49540873857626e+001	(-1.63451661465671e-003dB,-1.16640885009020e+000°)
5.75439937337158e+001	(-1.78826071703861e-003dB,-1.22138455916026e+000°)
6.02559586074359e+001	(-1.95688388414335e-003dB,-1.27895186622197e+000°)
6.30957344480195e+001	(-2.14183100909529e-003dB,-1.33923300864616e+000°)
6.60693448007598e+001	(-2.34468830406025e-003dB,-1.40235599921155e+000°)
6.91830970918938e+001	(-2.56719732866609e-003dB,-1.46845490040377e+000°)
7.24435960074992e+001	(-2.81127045364366e-003dB,-1.53767011194281e+000°)
7.58577575029186e+001	(-3.07900791526078e-003dB,-1.61014867220309e+000°)
7.94328234724284e+001	(-3.37271663471981e-003dB,-1.68604457422709e+000°)
8.31763771102674e+001	(-3.69493099864357e-003dB,-1.76551909707137e+000°)
8.70963589956084e+001	(-4.04843581995845e-003dB,-1.84874115326460e+000°)
9.12010839355913e+001	(-4.43629172765029e-003dB,-1.93588765319956e+000°)
9.54992586021439e+001	(-4.86186326490621e-003dB,-2.02714388732577e+000°)
1.00000000000000e+002	(-5.32885001350356e-003dB,-2.12270392705533e+000°)
1.04712854805090e+002	(-5.84132110349990e-003dB,-2.22277104534276e+000°)
1.09647819614319e+002	(-6.40375351956201e-003dB,-2.32755815794741e+000°)
1.14815362149689e+002	(-7.02107467102852e-003dB,-2.43728828643555e+000°)
1.20226443461742e+002	(-7.69870976356044e-003dB,-2.55219504402557e+000°)
1.25892541179417e+002	(-8.44263458906273e-003dB,-2.67252314542214e+000°)
1.31825673855641e+002	(-9.25943444674436e-003dB,-2.79852894182084e+000°)
1.38038426460289e+002	(-1.01563700203392e-002dB,-2.93048098228843e+000°)
1.44543977074593e+002	(-1.11414511718469e-002dB,-3.06866060272983e+000°)
1.51356124843621e+002	(-1.22235197738530e-002dB,-3.21336254363097e+000°)
1.58489319246112e+002	(-1.34123428953352e-002dB,-3.36489559770444e+000°)
1.65958690743757e+002	(-1.47187178926402e-002dB,-3.52358328844284e+000°)
1.73780082874938e+002	(-1.61545912413423e-002dB,-3.68976458037690e+000°)
1.81970085860999e+002	(-1.77331932929634e-002dB,-3.86379462150341e+000°)
1.90546071796326e+002	(-1.94691915674821e-002dB,-4.04604551783837e+000°)
1.99526231496889e+002	(-2.13788657178270e-002dB,-4.23690713928692e+000°)
2.08929613085405e+002	(-2.34803079502200e-002dB,-4.43678795489426e+000°)
2.18776162394956e+002	(-2.57936534918889e-002dB,-4.64611589389526e+000°)
2.29086765276778e+002	(-2.83413466990449e-002dB,-4.86533922659089e+000°)
2.39883291901950e+002	(-3.11484496517658e-002dB,-5.09492745562531e+000°)
2.51188643150959e+002	(-3.42430016540793e-002dB,-5.33537220325555e+000°)
2.63026799189540e+002	(-3.76564400275894e-002dB,-5.58718807302318e+000°)
2.75422870333818e+002	(-4.14240950664919e-002dB,-5.85091345387950e+000°)
2.88403150312662e+002	(-4.55857751352324e-002dB,-6.12711121985962e+000°)
3.01995172040203e+002	(-5.01864617970534e-002dB,-6.41636925676148e+000°)
3.16227766016840e+002	(-5.52771397398567e-002dB,-6.71930071590456e+000°)
3.31131121482593e+002	(-6.09157923121894e-002dB,-7.03654384940783e+000°)
3.46736850452534e+002	(-6.71686008738247e-002dB,-7.36876121487184e+000°)
3.63078054770104e+002	(-7.41113950095583e-002dB,-7.71663794001170e+000°)
3.80189396320564e+002	(-8.18314108424759e-002dB,-8.08087859505712e+000°)
3.98107170553500e+002	(-9.04294256506558e-002dB,-8.46220201103092e+000°)
4.16869383470338e+002	(-1.00022347217470e-001dB,-8.86133307361382e+000°)
4.36515832240169e+002	(-1.10746342434815e-001dB,-9.27899006906467e+000°)
4.57088189614878e+002	(-1.22760584660481e-001dB,-9.71586549479203e+000°)
4.78630092322641e+002	(-1.36251669556692e-001dB,-1.01725972820387e+001°)
5.01187233627276e+002	(-1.51438668726654e-001dB,-1.06497259948503e+001°)
5.24807460249776e+002	(-1.68578611667017e-001dB,-1.11476316370063e+001°)
5.49540873857628e+002	(-1.87971823594856e-001dB,-1.16664411214397e+001°)
5.75439937337161e+002	(-2.09965850873246e-001dB,-1.22058943171722e+001°)
6.02559586074362e+002	(-2.34955432524803e-001dB,-1.27651534978193e+001°)
6.30957344480198e+002	(-2.63373759435106e-001dB,-1.33425398953874e+001°)
6.60693448007601e+002	(-2.95666653541033e-001dB,-1.39351867209032e+001°)
6.91830970918941e+002	(-3.32236039103128e-001dB,-1.45386208528479e+001°)
7.24435960074995e+002	(-3.73332997784935e-001dB,-1.51463447214396e+001°)
7.58577575029189e+002	(-4.18877908470362e-001dB,-1.57496135333944e+001°)
7.94328234724287e+002	(-4.68196872634507e-001dB,-1.63378086642315e+001°)
8.31763771102677e+002	(-5.19710662465014e-001dB,-1.69000376275976e+001°)
8.70963589956087e+002	(-5.70714085261230e-001dB,-1.74285823904699e+001°)
9.12010839355917e+002	(-6.17510508361072e-001dB,-1.79240489581215e+001°)
9.54992586021443e+002	(-6.56170573425368e-001dB,-1.84002248162810e+001°)
1.00000000000001e+003	(-6.83855113210284e-001dB,-1.88848428153100e+001°)
1.04712854805091e+003	(-7.00058426318048e-001dB,-1.94135060387042e+001°)
1.09647819614319e+003	(-7.06909769168704e-001dB,-2.00189555686156e+001°)
1.14815362149689e+003	(-7.08298169360405e-001dB,-2.07221058973582e+001°)
1.20226443461742e+003	(-7.08475412313457e-001dB,-2.15296096835567e+001°)
1.25892541179418e+003	(-7.10982247602535e-001dB,-2.24372655253354e+001°)
1.31825673855642e+003	(-7.18237845239132e-001dB,-2.34354367199383e+001°)
1.38038426460290e+003	(-7.31632605999724e-001dB,-2.45134405963117e+001°)
1.44543977074594e+003	(-7.51826310220169e-001dB,-2.56619802406174e+001°)
1.51356124843622e+003	(-7.79048570394685e-001dB,-2.68740038878132e+001°)
1.58489319246113e+003	(-8.13322919384959e-001dB,-2.81446811008329e+001°)
1.65958690743757e+003	(-8.54608717153071e-001dB,-2.94710178109551e+001°)
1.73780082874939e+003	(-9.02880840575670e-001dB,-3.08513965776437e+001°)
1.81970085861000e+003	(-9.58169256309815e-001dB,-3.22851638883946e+001°)
1.90546071796326e+003	(-1.02057514777465e+000dB,-3.37722992495693e+001°)
1.99526231496890e+003	(-1.09027431915084e+000dB,-3.53131634448381e+001°)
2.08929613085406e+003	(-1.16751416776757e+000dB,-3.69083113130935e+001°)
2.18776162394957e+003	(-1.25260768294568e+000dB,-3.85583532488409e+001°)
2.29086765276779e+003	(-1.34592626563693e+000dB,-4.02638522118801e+001°)
2.39883291901951e+003	(-1.44789224134123e+000dB,-4.20252462949108e+001°)
2.51188643150960e+003	(-1.55897145217949e+000dB,-4.38427897461608e+001°)
2.63026799189541e+003	(-1.67966606991642e+000dB,-4.57165075249438e+001°)
2.75422870333819e+003	(-1.81050765745356e+000dB,-4.76461600347846e+001°)
2.88403150312663e+003	(-1.95205045908325e+000dB,-4.96312157666954e+001°)
3.01995172040204e+003	(-2.10486488597819e+000dB,-5.16708303254797e+001°)
3.16227766016841e+003	(-2.26953116540439e+000dB,-5.37638308057909e+001°)
3.31131121482594e+003	(-2.44663313060403e+000dB,-5.59087048016950e+001°)
3.46736850452535e+003	(-2.63675213728811e+000dB,-5.81035935190841e+001°)
3.63078054770105e+003	(-2.84046109704415e+000dB,-6.03462885472830e+001°)
3.80189396320565e+003	(-3.05831861187750e+000dB,-6.26342318702073e+001°)
3.98107170553501e+003	(-3.29086317139913e+000dB,-6.49645187171221e+001°)
4.16869383470339e+003	(-3.53860733154698e+000dB,-6.73339029726511e+001°)
4.36515832240170e+003	(-3.80203173876962e+000dB,-6.97388052444692e+001°)
4.57088189614880e+003	(-4.08157882795802e+000dB,-7.21753244957657e+001°)
4.78630092322643e+003	(-4.37764607245193e+000dB,-7.46392554104359e+001°)
5.01187233627277e+003	(-4.69057888642898e+000dB,-7.71261149538833e+001°)
5.24807460249778e+003	(-5.02066370736145e+000dB,-7.96311818338832e+001°)
5.49540873857630e+003	(-5.36812227754356e+000dB,-8.21495503566116e+001°)
5.75439937337163e+003	(-5.73310833489023e+000dB,-8.46761951681661e+001°)
6.02559586074364e+003	(-6.11570744540020e+000dB,-8.72060378098582e+001°)
6.30957344480200e+003	(-6.51593962581762e+000dB,-8.97340040917195e+001°)
6.60693448007603e+003	(-6.93376337407387e+000dB,-9.22550654667635e+001°)
6.91830970918944e+003	(-7.36907949055395e+000dB,-9.47642654333502e+001°)
7.24435960074998e+003	(-7.82173373992780e+000dB,-9.72567380125167e+001°)
7.58577575029192e+003	(-8.29151838066626e+000dB,-9.97277261563721e+001°)
7.94328234724290e+003	(-8.77817322396438e+000dB,-1.02172604638843e+002°)
8.31763771102680e+003	(-9.28138697290700e+000dB,-1.04586907860796e+002°)
8.70963589956090e+003	(-9.80079933492834e+000dB,-1.06966360388254e+002°)
9.12010839355919e+003	(-1.03360040750302e+001dB,-1.09306907316168e+002°)
9.54992586021446e+003	(-1.08865529421545e+001dB,-1.11604742002464e+002°)
1.00000000000001e+004	(-1.14519602848186e+001dB,-1.13856329555998e+002°)
1.04712854805091e+004	(-1.20317081408329e+001dB,-1.16058425230871e+002°)
1.09647819614320e+004	(-1.26252515982121e+001dB,-1.18208087432397e+002°)
1.14815362149690e+004	(-1.32320242522302e+001dB,-1.20302685391423e+002°)
1.20226443461743e+004	(-1.38514436132074e+001dB,-1.22339901774667e+002°)
1.25892541179418e+004	(-1.44829163462894e+001dB,-1.24317730624640e+002°)
1.31825673855642e+004	(-1.51258432475890e+001dB,-1.26234471099333e+002°)
1.38038426460290e+004	(-1.57796238813565e+001dB,-1.28088717528791e+002°)
1.44543977074594e+004	(-1.64436608211235e+001dB,-1.29879346331850e+002°)
1.51356124843623e+004	(-1.71173634545044e+001dB,-1.31605500345472e+002°)
1.58489319246113e+004	(-1.78001513266949e+001dB,-1.33266571113220e+002°)
1.65958690743758e+004	(-1.84914570115928e+001dB,-1.34862179659774e+002°)
1.73780082874940e+004	(-1.91907285117340e+001dB,-1.36392156246921e+002°)
1.81970085861000e+004	(-1.98974311987150e+001dB,-1.37856519565444e+002°)
1.90546071796327e+004	(-2.06110493143553e+001dB,-1.39255455769196e+002°)
1.99526231496890e+004	(-2.13310870595213e+001dB,-1.40589297705290e+002°)
2.08929613085406e+004	(-2.20570693023367e+001dB,-1.41858504640110e+002°)
2.18776162394958e+004	(-2.27885419405824e+001dB,-1.43063642727134e+002°)
2.29086765276780e+004	(-2.35250719546306e+001dB,-1.44205366411286e+002°)
2.39883291901952e+004	(-2.42662471874763e+001dB,-1.45284400917031e+002°)
2.51188643150961e+004	(-2.50116758875828e+001dB,-1.46301525924894e+002°)
2.63026799189541e+004	(-2.57609860485651e+001dB,-1.47257560503992e+002°)
2.75422870333820e+004	(-2.65138245774486e+001dB,-1.48153349336867e+002°)
2.88403150312664e+004	(-2.72698563205440e+001dB,-1.48989750247381e+002°)
3.01995172040205e+004	(-2.80287629730756e+001dB,-1.49767623022392e+002°)
3.16227766016842e+004	(-2.87902418957307e+001dB,-1.50487819503024e+002°)
3.31131121482595e+004	(-2.95540048583958e+001dB,-1.51151174911018e+002°)
3.46736850452536e+004	(-3.03197767286050e+001dB,-1.51758500369367e+002°)
3.63078054770106e+004	(-3.10872941197327e+001dB,-1.52310576573589e+002°)
3.80189396320566e+004	(-3.18563040117634e+001dB,-1.52808148569915e+002°)
3.98107170553502e+004	(-3.26265623556078e+001dB,-1.53251921598874e+002°)
4.16869383470341e+004	(-3.33978326704286e+001dB,-1.53642557966578e+002°)
4.36515832240172e+004	(-3.41698846423015e+001dB,-1.53980674910913e+002°)
4.57088189614881e+004	(-3.49424927317591e+001dB,-1.54266843435438e+002°)
4.78630092322645e+004	(-3.57154347973425e+001dB,-1.54501588089404e+002°)
5.01187233627279e+004	(-3.64884907421906e+001dB,-1.54685387677736e+002°)
5.24807460249780e+004	(-3.72614411909043e+001dB,-1.54818676889469e+002°)
5.49540873857632e+004	(-3.80340662043940e+001dB,-1.54901848836861e+002°)
5.75439937337165e+004	(-3.88061440411134e+001dB,-1.54935258499773e+002°)
6.02559586074366e+004	(-3.95774499739592e+001dB,-1.54919227070811e+002°)
6.30957344480202e+004	(-4.03477551731223e+001dB,-1.54854047195918e+002°)
6.60693448007605e+004	(-4.11168256662739e+001dB,-1.54739989102540e+002°)
6.91830970918946e+004	(-4.18844213886095e+001dB,-1.54577307603034e+002°)
7.24435960075000e+004	(-4.26502953364253e+001dB,-1.54366249954637e+002°)
7.58577575029194e+004	(-4.34141928390203e+001dB,-1.54107064548987e+002°)
7.94328234724293e+004	(-4.41758509647815e+001dB,-1.53800010393840e+002°)
8.31763771102683e+004	(-4.49349980782728e+001dB,-1.53445367337062e+002°)
8.70963589956093e+004	(-4.56913535659818e+001dB,-1.53043446968152e+002°)
9.12010839355923e+004	(-4.64446277490047e+001dB,-1.52594604115086e+002°)
9.54992586021450e+004	(-4.71945220013124e+001dB,-1.52099248834068e+002°)
1.00000000000001e+005	(-4.79407290921956e+001dB,-1.51557858766564e+002°)
1.04712854805091e+005	(-4.86829337709219e+001dB,-1.50970991711809e+002°)
1.09647819614320e+005	(-4.94208136103435e+001dB,-1.50339298233944e+002°)
1.14815362149690e+005	(-5.01540401239978e+001dB,-1.49663534091729e+002°)
1.20226443461743e+005	(-5.08822801679061e+001dB,-1.48944572246336e+002°)
1.25892541179419e+005	(-5.16051976336360e+001dB,-1.48183414170746e+002°)
1.31825673855643e+005	(-5.23224554330762e+001dB,-1.47381200154833e+002°)
1.38038426460291e+005	(-5.30337177677287e+001dB,-1.46539218276102e+002°)
1.44543977074595e+005	(-5.37386526661947e+001dB,-1.45658911690309e+002°)
1.51356124843623e+005	(-5.44369347631059e+001dB,-1.44741883892132e+002°)
1.58489319246114e+005	(-5.51282482813906e+001dB,-1.43789901606921e+002°)
1.65958690743759e+005	(-5.58122901679879e+001dB,-1.42804895003054e+002°)
1.73780082874940e+005	(-5.64887733216172e+001dB,-1.41788954962343e+002°)
1.81970085861001e+005	(-5.71574298407809e+001dB,-1.40744327214088e+002°)
1.90546071796328e+005	(-5.78180142116954e+001dB,-1.39673403225609e+002°)
1.99526231496891e+005	(-5.84703063501840e+001dB,-1.38578707845828e+002°)
2.08929613085407e+005	(-5.91141144094801e+001dB,-1.37462883814111e+002°)
2.18776162394959e+005	(-5.97492772679626e+001dB,-1.36328673367943e+002°)
2.29086765276781e+005	(-6.03756666173799e+001dB,-1.35178897302682e+002°)
2.39883291901953e+005	(-6.09931885830613e+001dB,-1.34016431946515e+002°)
2.51188643150962e+005	(-6.16017848225523e+001dB,-1.32844184605856e+002°)
2.63026799189542e+005	(-6.22014330672639e+001dB,-1.31665068103748e+002°)
2.75422870333821e+005	(-6.27921470919949e+001dB,-1.30481975071007e+002°)
2.88403150312665e+005	(-6.33739761182639e+001dB,-1.29297752653936e+002°)
3.01995172040206e+005	(-6.39470036778885e+001dB,-1.28115178273145e+002°)
3.16227766016843e+005	(-6.45113459818144e+001dB,-1.26936937007964e+002°)
3.31131121482596e+005	(-6.50671498546953e+001dB,-1.25765601095107e+002°)
3.46736850452537e+005	(-6.56145903072951e+001dB,-1.24603611925713e+002°)
3.63078054770107e+005	(-6.61538678259636e+001dB,-1.23453264809750e+002°)
3.80189396320567e+005	(-6.66852054611588e+001dB,-1.22316696659408e+002°)
3.98107170553504e+005	(-6.72088457955454e+001dB,-1.21195876631245e+002°)
4.16869383470342e+005	(-6.77250478672204e+001dB,-1.20092599666907e+002°)
4.36515832240173e+005	(-6.82340841158972e+001dB,-1.19008482788722e+002°)
4.57088189614883e+005	(-6.87362374103463e+001dB,-1.17944963941908e+002°)
4.78630092322646e+005	(-6.92317982049390e+001dB,-1.16903303130106e+002°)
5.01187233627281e+005	(-6.97210618625637e+001dB,-1.15884585564240e+002°)
5.24807460249781e+005	(-7.02043261711325e+001dB,-1.14889726534144e+002°)
5.49540873857634e+005	(-7.06818890718065e+001dB,-1.13919477714724e+002°)
5.75439937337167e+005	(-7.11540466092113e+001dB,-1.12974434630515e+002°)
6.02559586074368e+005	(-7.16210911073754e+001dB,-1.12055045021051e+002°)
6.30957344480204e+005	(-7.20833095698746e+001dB,-1.11161617871944e+002°)
6.60693448007607e+005	(-7.25409822985745e+001dB,-1.10294332900583e+002°)
6.91830970918948e+005	(-7.29943817222750e+001dB,-1.09453250309684e+002°)
7.24435960075003e+005	(-7.34437714242796e+001dB,-1.08638320645256e+002°)
7.58577575029197e+005	(-7.38894053562896e+001dB,-1.07849394617624e+002°)
7.94328234724295e+005	(-7.43315272248963e+001dB,-1.07086232764584e+002°)
8.31763771102686e+005	(-7.47703700362179e+001dB,-1.06348514854665e+002°)
8.70963589956096e+005	(-7.52061557838124e+001dB,-1.05635848945822e+002°)
9.12010839355926e+005	(-7.56390952648364e+001dB,-1.04947780030921e+002°)
9.54992586021453e+005	(-7.60693880094663e+001dB,-1.04283798216095e+002°)
1.00000000000000e+006	(-7.64972223088416e+001dB,-1.03643346391563e+002°)
Step Information: Run=2  (Run: 2/40)
1.00000000000000e+001	(-9.98243048525705e-005dB,-2.14841545113259e-001°)
1.04712854805090e+001	(-1.05277151358007e-004dB,-2.24966677978396e-001°)
1.09647819614319e+001	(-1.11256101811566e-004dB,-2.35568988140762e-001°)
1.14815362149688e+001	(-1.17811918470334e-004dB,-2.46670963456770e-001°)
1.20226443461741e+001	(-1.25000261958837e-004dB,-2.58296151481869e-001°)
1.25892541179417e+001	(-1.32882164113534e-004dB,-2.70469209394701e-001°)
1.31825673855641e+001	(-1.41524546313948e-004dB,-2.83215956271460e-001°)
1.38038426460289e+001	(-1.51000788139134e-004dB,-2.96563427820814e-001°)
1.44543977074593e+001	(-1.61391350657303e-004dB,-3.10539933694918e-001°)
1.51356124843621e+001	(-1.72784459994613e-004dB,-3.25175117497384e-001°)
1.58489319246111e+001	(-1.85276857065162e-004dB,-3.40500019614742e-001°)
1.65958690743756e+001	(-1.98974619703832e-004dB,-3.56547143003759e-001°)
1.73780082874938e+001	(-2.13994063941373e-004dB,-3.73350522073152e-001°)
1.81970085860999e+001	(-2.30462732897226e-004dB,-3.90945794804619e-001°)
1.90546071796325e+001	(-2.48520480746875e-004dB,-4.09370278264827e-001°)
1.99526231496888e+001	(-2.68320661723897e-004dB,-4.28663047666991e-001°)
2.08929613085404e+001	(-2.90031434119102e-004dB,-4.48865019147959e-001°)
2.18776162394956e+001	(-3.13837190270834e-004dB,-4.70019036434363e-001°)
2.29086765276778e+001	(-3.39940124897668e-004dB,-4.92169961579325e-001°)
2.39883291901949e+001	(-3.68561955201985e-004dB,-5.15364769959507e-001°)
2.51188643150958e+001	(-3.99945807407113e-004dB,-5.39652649730942e-001°)
