Freq.	V(bp)
Step Information: Run=1  (Run: 1/40)
1.00000000000000e+001	(-5.72317195184401e+001dB,8.98937468698826e+001°)
1.04712854805090e+001	(-5.68317205779222e+001dB,8.98887392446501e+001°)
1.09647819614319e+001	(-5.64317217396724e+001dB,8.98834956070173e+001°)
1.14815362149688e+001	(-5.60317230135679e+001dB,8.98780048325374e+001°)
1.20226443461741e+001	(-5.56317244104406e+001dB,8.98722552722587e+001°)
1.25892541179417e+001	(-5.52317259421700e+001dB,8.98662347279721e+001°)
1.31825673855641e+001	(-5.48317276217850e+001dB,8.98599304262865e+001°)
1.38038426460289e+001	(-5.44317294635751e+001dB,8.98533289914778e+001°)
1.44543977074593e+001	(-5.40317314832124e+001dB,8.98464164170509e+001°)
1.51356124843621e+001	(-5.36317336978869e+001dB,8.98391780359540e+001°)
1.58489319246111e+001	(-5.32317361264530e+001dB,8.98315984893814e+001°)
1.65958690743756e+001	(-5.28317387895918e+001dB,8.98236616940948e+001°)
1.73780082874938e+001	(-5.24317417099888e+001dB,8.98153508081942e+001°)
1.81970085860999e+001	(-5.20317449125295e+001dB,8.98066481952625e+001°)
1.90546071796325e+001	(-5.16317484245133e+001dB,8.97975353868046e+001°)
1.99526231496888e+001	(-5.12317522758893e+001dB,8.97879930429001e+001°)
2.08929613085404e+001	(-5.08317564995152e+001dB,8.97780009109811e+001°)
2.18776162394956e+001	(-5.04317611314421e+001dB,8.97675377826452e+001°)
2.29086765276778e+001	(-5.00317662112265e+001dB,8.97565814484070e+001°)
2.39883291901949e+001	(-4.96317717822748e+001dB,8.97451086502871e+001°)
2.51188643150958e+001	(-4.92317778922215e+001dB,8.97330950321330e+001°)
2.63026799189539e+001	(-4.88317845933446e+001dB,8.97205150875586e+001°)
2.75422870333817e+001	(-4.84317919430240e+001dB,8.97073421053859e+001°)
2.88403150312661e+001	(-4.80318000042452e+001dB,8.96935481124634e+001°)
3.01995172040202e+001	(-4.76318088461546e+001dB,8.96791038137300e+001°)
3.16227766016838e+001	(-4.72318185446701e+001dB,8.96639785293865e+001°)
3.31131121482592e+001	(-4.68318291831561e+001dB,8.96481401290275e+001°)
3.46736850452532e+001	(-4.64318408531654e+001dB,8.96315549625794e+001°)
3.63078054770102e+001	(-4.60318536552598e+001dB,8.96141877878810e+001°)
3.80189396320562e+001	(-4.56318676999144e+001dB,8.95960016947322e+001°)
3.98107170553498e+001	(-4.52318831085174e+001dB,8.95769580252284e+001°)
4.16869383470336e+001	(-4.48319000144743e+001dB,8.95570162901842e+001°)
4.36515832240167e+001	(-4.44319185644303e+001dB,8.95361340814409e+001°)
4.57088189614876e+001	(-4.40319389196221e+001dB,8.95142669798351e+001°)
4.78630092322639e+001	(-4.36319612573764e+001dB,8.94913684585966e+001°)
5.01187233627273e+001	(-4.32319857727711e+001dB,8.94673897819241e+001°)
5.24807460249774e+001	(-4.28320126804790e+001dB,8.94422798984724e+001°)
5.49540873857626e+001	(-4.24320422168168e+001dB,8.94159853294660e+001°)
5.75439937337158e+001	(-4.20320746420234e+001dB,8.93884500511349e+001°)
6.02559586074359e+001	(-4.16321102427984e+001dB,8.93596153711451e+001°)
6.30957344480195e+001	(-4.12321493351316e+001dB,8.93294197986736e+001°)
6.60693448007598e+001	(-4.08321922674636e+001dB,8.92977989077515e+001°)
6.91830970918938e+001	(-4.04322394242201e+001dB,8.92646851934690e+001°)
7.24435960074992e+001	(-4.00322912297712e+001dB,8.92300079206065e+001°)
7.58577575029186e+001	(-3.96323481528732e+001dB,8.91936929642187e+001°)
7.94328234724284e+001	(-3.92324107116619e+001dB,8.91556626416645e+001°)
8.31763771102674e+001	(-3.88324794792759e+001dB,8.91158355355288e+001°)
8.70963589956084e+001	(-3.84325550902025e+001dB,8.90741263068397e+001°)
9.12010839355913e+001	(-3.80326382474533e+001dB,8.90304454979340e+001°)
9.54992586021439e+001	(-3.76327297306978e+001dB,8.89846993242673e+001°)
1.00000000000000e+002	(-3.72328304055028e+001dB,8.89367894544046e+001°)
1.04712854805090e+002	(-3.68329412338551e+001dB,8.88866127773644e+001°)
1.09647819614319e+002	(-3.64330632861755e+001dB,8.88340611564145e+001°)
1.14815362149689e+002	(-3.60331977550724e+001dB,8.87790211683463e+001°)
1.20226443461742e+002	(-3.56333459711315e+001dB,8.87213738271684e+001°)
1.25892541179417e+002	(-3.52335094210930e+001dB,8.86609942910856e+001°)
1.31825673855641e+002	(-3.48336897688427e+001dB,8.85977515515322e+001°)
1.38038426460289e+002	(-3.44338888797231e+001dB,8.85315081029599e+001°)
1.44543977074593e+002	(-3.40341088487831e+001dB,8.84621195919902e+001°)
1.51356124843621e+002	(-3.36343520337055e+001dB,8.83894344444932e+001°)
1.58489319246112e+002	(-3.32346210933191e+001dB,8.83132934691076e+001°)
1.65958690743757e+002	(-3.28349190327919e+001dB,8.82335294357329e+001°)
1.73780082874938e+002	(-3.24352492568490e+001dB,8.81499666275862e+001°)
1.81970085860999e+002	(-3.20356156326607e+001dB,8.80624203656025e+001°)
1.90546071796326e+002	(-3.16360225644236e+001dB,8.79706965042677e+001°)
1.99526231496889e+002	(-3.12364750821265e+001dB,8.78745908985343e+001°)
2.08929613085405e+002	(-3.08369789475894e+001dB,8.77738888423359e+001°)
2.18776162394956e+002	(-3.04375407815988e+001dB,8.76683644805736e+001°)
2.29086765276778e+002	(-3.00381682169043e+001dB,8.75577801985043e+001°)
2.39883291901950e+002	(-2.96388700830154e+001dB,8.74418859955088e+001°)
2.51188643150959e+002	(-2.92396566302331e+001dB,8.73204188547571e+001°)
2.63026799189540e+002	(-2.88405398022326e+001dB,8.71931021269367e+001°)
2.75422870333818e+002	(-2.84415335689024e+001dB,8.70596449559638e+001°)
2.88403150312662e+002	(-2.80426543341597e+001dB,8.69197417888362e+001°)
3.01995172040203e+002	(-2.76439214372603e+001dB,8.67730720326477e+001°)
3.16227766016840e+002	(-2.72453577708916e+001dB,8.66192999521842e+001°)
3.31131121482593e+002	(-2.68469905452597e+001dB,8.64580749461187e+001°)
3.46736850452534e+002	(-2.64488522346483e+001dB,8.62890324051176e+001°)
3.63078054770104e+002	(-2.60509817516388e+001dB,8.61117954510752e+001°)
3.80189396320564e+002	(-2.56534259042275e+001dB,8.59259779977975e+001°)
3.98107170553500e+002	(-2.52562412018996e+001dB,8.57311897812574e+001°)
4.16869383470338e+002	(-2.48594960867973e+001dB,8.55270443137751e+001°)
4.36515832240169e+002	(-2.44632736720550e+001dB,8.53131711672384e+001°)
4.57088189614878e+002	(-2.40676750642057e+001dB,8.50892346514609e+001°)
4.78630092322641e+002	(-2.36728233166357e+001dB,8.48549619156486e+001°)
5.01187233627276e+002	(-2.32788679805120e+001dB,8.46101848804416e+001°)
5.24807460249776e+002	(-2.28859900406696e+001dB,8.43549023361930e+001°)
5.49540873857628e+002	(-2.24944066608711e+001dB,8.40893711153058e+001°)
5.75439937337161e+002	(-2.21043744669170e+001dB,8.38142383803077e+001°)
6.02559586074362e+002	(-2.17161888227911e+001dB,8.35307301537672e+001°)
6.30957344480198e+002	(-2.13301743381160e+001dB,8.32409123290620e+001°)
6.60693448007601e+002	(-2.09466582359292e+001dB,8.29480347346519e+001°)
6.91830970918941e+002	(-2.05659129497110e+001dB,8.26569459752858e+001°)
7.24435960074995e+002	(-2.01880482384362e+001dB,8.23745074353515e+001°)
7.58577575029189e+002	(-1.98128303179756e+001dB,8.21098112001723e+001°)
7.94328234724287e+002	(-1.94394172075669e+001dB,8.18738009539800e+001°)
8.31763771102677e+002	(-1.90660465271684e+001dB,8.16776653141584e+001°)
8.70963589956087e+002	(-1.86898136388195e+001dB,8.15293816827624e+001°)
9.12010839355917e+002	(-1.83068048771584e+001dB,8.14285575193823e+001°)
9.54992586021443e+002	(-1.79128549005470e+001dB,8.13615622507839e+001°)
1.00000000000001e+003	(-1.75048681807977e+001dB,8.13007510066248e+001°)
1.04712854805091e+003	(-1.70820607947577e+001dB,8.12105253801373e+001°)
1.09647819614319e+003	(-1.66462603884851e+001dB,8.10580490047104e+001°)
1.14815362149689e+003	(-1.62010294344614e+001dB,8.08221928578203e+001°)
1.20226443461742e+003	(-1.57502666561241e+001dB,8.04959482047708e+001°)
1.25892541179418e+003	(-1.52971316963235e+001dB,8.00829930645164e+001°)
1.31825673855642e+003	(-1.48436331001529e+001dB,7.95922437183591e+001°)
1.38038426460290e+003	(-1.43907197692154e+001dB,7.90334310917250e+001°)
1.44543977074594e+003	(-1.39385779411018e+001dB,7.84146295225269e+001°)
1.51356124843622e+003	(-1.34869307498558e+001dB,7.77413518825188e+001°)
1.58489319246113e+003	(-1.30352618168564e+001dB,7.70165210651482e+001°)
1.65958690743757e+003	(-1.25829572078600e+001dB,7.62407947867657e+001°)
1.73780082874939e+003	(-1.21293859193156e+001dB,7.54129562413928e+001°)
1.81970085861000e+003	(-1.16739412520669e+001dB,7.45302475631055e+001°)
1.90546071796326e+003	(-1.12160600795267e+001dB,7.35886100042943e+001°)
1.99526231496890e+003	(-1.07552311711643e+001dB,7.25828320249394e+001°)
2.08929613085406e+003	(-1.02909994341067e+001dB,7.15066184850942e+001°)
2.18776162394957e+003	(-9.82297027686448e+000dB,7.03525953684206e+001°)
2.29086765276779e+003	(-9.35081686271138e+000dB,6.91122621696573e+001°)
2.39883291901951e+003	(-8.87429239187628e+000dB,6.77759014495629e+001°)
2.51188643150960e+003	(-8.39324943913246e+000dB,6.63324534089706e+001°)
2.63026799189541e+003	(-7.90766859557136e+000dB,6.47693632561950e+001°)
2.75422870333819e+003	(-7.41769911014391e+000dB,6.30724110985881e+001°)
2.88403150312663e+003	(-6.92371481467478e+000dB,6.12255387000603e+001°)
3.01995172040204e+003	(-6.42638924343129e+000dB,5.92106956379698e+001°)
3.16227766016841e+003	(-5.92679434690910e+000dB,5.70077404575157e+001°)
3.31131121482594e+003	(-5.42652721612441e+000dB,5.45944519220467e+001°)
3.46736850452535e+003	(-4.92786818043364e+000dB,5.19467328115157e+001°)
3.63078054770105e+003	(-4.43397052329592e+000dB,4.90391241417011e+001°)
3.80189396320565e+003	(-3.94907538210511e+000dB,4.58457879259660e+001°)
3.98107170553501e+003	(-3.47873325298454e+000dB,4.23421510147095e+001°)
4.16869383470339e+003	(-3.02999419986866e+000dB,3.85074073378697e+001°)
4.36515832240170e+003	(-2.61150252552340e+000dB,3.43280090158201e+001°)
4.57088189614880e+003	(-2.23340348718152e+000dB,2.98020808550883e+001°)
4.78630092322643e+003	(-1.90695384661103e+000dB,2.49443198076083e+001°)
5.01187233627277e+003	(-1.64374911257032e+000dB,1.97904138005909e+001°)
5.24807460249778e+003	(-1.45456416960959e+000dB,1.43995103902466e+001°)
5.49540873857630e+003	(-1.34795336415166e+000dB,8.85314438204623e+000°)
5.75439937337163e+003	(-1.32892104238815e+000dB,3.24967560652424e+000°)
6.02559586074364e+003	(-1.39805265981585e+000dB,-2.30527447240916e+000°)
6.30957344480200e+003	(-1.55140133211501e+000dB,-7.71026558053970e+000°)
6.60693448007603e+003	(-1.78117035412051e+000dB,-1.28783851493894e+001°)
6.91830970918944e+003	(-2.07695460038702e+000dB,-1.77440269785115e+001°)
7.24435960074998e+003	(-2.42715756067398e+000dB,-2.22651462311921e+001°)
7.58577575029192e+003	(-2.82023804288419e+000dB,-2.64216119391304e+001°)
7.94328234724290e+003	(-3.24559324380746e+000dB,-3.02111592532496e+001°)
8.31763771102680e+003	(-3.69404614429725e+000dB,-3.36445003814780e+001°)
8.70963589956090e+003	(-4.15800844769904e+000dB,-3.67407123079265e+001°)
9.12010839355919e+003	(-4.63142634760660e+000dB,-3.95234727290482e+001°)
9.54992586021446e+003	(-5.10960792409053e+000dB,-4.20182932595776e+001°)
1.00000000000001e+004	(-5.58900430222083e+000dB,-4.42506578559513e+001°)
1.04712854805091e+004	(-6.06698903268227e+000dB,-4.62448783212774e+001°)
1.09647819614320e+004	(-6.54165875059375e+000dB,-4.80234690363087e+001°)
1.14815362149690e+004	(-7.01166419008752e+000dB,-4.96068725591414e+001°)
1.20226443461743e+004	(-7.47607265557858e+000dB,-5.10134080427356e+001°)
1.25892541179418e+004	(-7.93425912884098e+000dB,-5.22593518992329e+001°)
1.31825673855642e+004	(-8.38582169399987e+000dB,-5.33590900187946e+001°)
1.38038426460290e+004	(-8.83051676580418e+000dB,-5.43253027103660e+001°)
1.44543977074594e+004	(-9.26821001929668e+000dB,-5.51691586503521e+001°)
1.51356124843623e+004	(-9.69883955432253e+000dB,-5.59005041551125e+001°)
1.58489319246113e+004	(-1.01223884884691e+001dB,-5.65280405178433e+001°)
1.65958690743758e+004	(-1.05388647683561e+001dB,-5.70594861262771e+001°)
1.73780082874940e+004	(-1.09482864908777e+001dB,-5.75017224411359e+001°)
1.81970085861000e+004	(-1.13506714311009e+001dB,-5.78609242436613e+001°)
1.90546071796327e+004	(-1.17460297920689e+001dB,-5.81426752399838e+001°)
1.99526231496890e+004	(-1.21343594378499e+001dB,-5.83520703928446e+001°)
2.08929613085406e+004	(-1.25156430589270e+001dB,-5.84938063987938e+001°)
2.18776162394958e+004	(-1.28898468605367e+001dB,-5.85722616438669e+001°)
2.29086765276780e+004	(-1.32569204701808e+001dB,-5.85915668161184e+001°)
2.39883291901952e+004	(-1.36167978381800e+001dB,-5.85556671685792e+001°)
2.51188643150961e+004	(-1.39693989610542e+001dB,-5.84683772350150e+001°)
2.63026799189541e+004	(-1.43146322966284e+001dB,-5.83334286178530e+001°)
2.75422870333820e+004	(-1.46523977656394e+001dB,-5.81545113019702e+001°)
2.88403150312664e+004	(-1.49825902502932e+001dB,-5.79353088054232e+001°)
3.01995172040205e+004	(-1.53051035079107e+001dB,-5.76795273627240e+001°)
3.16227766016842e+004	(-1.56198344195978e+001dB,-5.73909192503630e+001°)
3.31131121482595e+004	(-1.59266874913815e+001dB,-5.70733003098983e+001°)
3.46736850452536e+004	(-1.62255795200986e+001dB,-5.67305617015741e+001°)
3.63078054770106e+004	(-1.65164443299638e+001dB,-5.63666759307362e+001°)
3.80189396320566e+004	(-1.67992374796261e+001dB,-5.59856972282403e+001°)
3.98107170553502e+004	(-1.70739408347589e+001dB,-5.55917564314414e+001°)
4.16869383470341e+004	(-1.73405668991478e+001dB,-5.51890505987393e+001°)
4.36515832240172e+004	(-1.75991627985099e+001dB,-5.47818276917854e+001°)
4.57088189614881e+004	(-1.78498138166547e+001dB,-5.43743667670642e+001°)
4.78630092322645e+004	(-1.80926463931548e+001dB,-5.39709542243960e+001°)
5.01187233627279e+004	(-1.83278305054021e+001dB,-5.35758567547974e+001°)
5.24807460249780e+004	(-1.85555813751710e+001dB,-5.31932917063733e+001°)
5.49540873857632e+004	(-1.87761604596199e+001dB,-5.28273956377206e+001°)
5.75439937337165e+004	(-1.89898757080277e+001dB,-5.24821918492009e+001°)
6.02559586074366e+004	(-1.91970810870004e+001dB,-5.21615576715043e+001°)
6.30957344480202e+004	(-1.93981753970599e+001dB,-5.18691922493617e+001°)
6.60693448007605e+004	(-1.95936004213184e+001dB,-5.16085854892502e+001°)
6.91830970918946e+004	(-1.97838384611794e+001dB,-5.13829887500413e+001°)
7.24435960075000e+004	(-1.99694093241635e+001dB,-5.11953877519453e+001°)
7.58577575029194e+004	(-2.01508668346939e+001dB,-5.10484780705969e+001°)
7.94328234724293e+004	(-2.03287949401962e+001dB,-5.09446434779720e+001°)
8.31763771102683e+004	(-2.05038034826630e+001dB,-5.08859372975609e+001°)
8.70963589956093e+004	(-2.06765237007263e+001dB,-5.08740668639071e+001°)
9.12010839355923e+004	(-2.08476035203892e+001dB,-5.09103811196967e+001°)
9.54992586021450e+004	(-2.10177026849193e+001dB,-5.09958613488138e+001°)
1.00000000000001e+005	(-2.11874877672165e+001dB,-5.11311150298088e+001°)
1.04712854805091e+005	(-2.13576271021431e+001dB,-5.13163727980460e+001°)
1.09647819614320e+005	(-2.15287856726715e+001dB,-5.15514885211579e+001°)
1.14815362149690e+005	(-2.17016199826543e+001dB,-5.18359425154716e+001°)
1.20226443461743e+005	(-2.18767729507764e+001dB,-5.21688479534277e+001°)
1.25892541179419e+005	(-2.20548688645556e+001dB,-5.25489605274089e+001°)
1.31825673855643e+005	(-2.22365084396209e+001dB,-5.29746914375150e+001°)
1.38038426460291e+005	(-2.24222640371554e+001dB,-5.34441237550242e+001°)
1.44543977074595e+005	(-2.26126751002647e+001dB,-5.39550321771530e+001°)
1.51356124843623e+005	(-2.28082438772066e+001dB,-5.45049061308008e+001°)
1.58489319246114e+005	(-2.30094315046170e+001dB,-5.50909761057745e+001°)
1.65958690743759e+005	(-2.32166545262173e+001dB,-5.57102430050178e+001°)
1.73780082874940e+005	(-2.34302819212286e+001dB,-5.63595101964143e+001°)
1.81970085861001e+005	(-2.36506327113190e+001dB,-5.70354178453949e+001°)
1.90546071796328e+005	(-2.38779742053292e+001dB,-5.77344790077736e+001°)
1.99526231496891e+005	(-2.41125209275241e+001dB,-5.84531168758076e+001°)
2.08929613085407e+005	(-2.43544342583006e+001dB,-5.91877025049499e+001°)
2.18776162394959e+005	(-2.46038227971816e+001dB,-5.99345923092348e+001°)
2.29086765276781e+005	(-2.48607434375818e+001dB,-6.06901646035610e+001°)
2.39883291901953e+005	(-2.51252031225890e+001dB,-6.14508544917400e+001°)
2.51188643150962e+005	(-2.53971612319548e+001dB,-6.22131864493606e+001°)
2.63026799189542e+005	(-2.56765325338249e+001dB,-6.29738040255390e+001°)
2.75422870333821e+005	(-2.59631906210929e+001dB,-6.37294961834875e+001°)
2.88403150312665e+005	(-2.62569717423348e+001dB,-6.44772199090669e+001°)
3.01995172040206e+005	(-2.65576789311550e+001dB,-6.52141188333295e+001°)
3.16227766016843e+005	(-2.68650863354590e+001dB,-6.59375377327562e+001°)
3.31131121482596e+005	(-2.71789436493401e+001dB,-6.66450328844489e+001°)
3.46736850452537e+005	(-2.74989805544915e+001dB,-6.73343783580324e+001°)
3.63078054770107e+005	(-2.78249110847865e+001dB,-6.80035684192795e+001°)
3.80189396320567e+005	(-2.81564378363699e+001dB,-6.86508162994487e+001°)
3.98107170553504e+005	(-2.84932559557095e+001dB,-6.92745496490532e+001°)
4.16869383470342e+005	(-2.88350568491092e+001dB,-6.98734030442768e+001°)
4.36515832240173e+005	(-2.91815315687506e+001dB,-7.04462079490913e+001°)
4.57088189614883e+005	(-2.95323738420103e+001dB,-7.09919805568615e+001°)
4.78630092322646e+005	(-2.98872827223219e+001dB,-7.15099079422042e+001°)
5.01187233627281e+005	(-3.02459648508251e+001dB,-7.19993329487150e+001°)
5.24807460249781e+005	(-3.06081363282958e+001dB,-7.24597382211979e+001°)
5.49540873857634e+005	(-3.09735242060433e+001dB,-7.28907297643462e+001°)
5.75439937337167e+005	(-3.13418676124402e+001dB,-7.32920203744135e+001°)
6.02559586074368e+005	(-3.17129185383041e+001dB,-7.36634132485879e+001°)
6.30957344480204e+005	(-3.20864423094166e+001dB,-7.40047860303442e+001°)
6.60693448007607e+005	(-3.24622177779438e+001dB,-7.43160754999846e+001°)
6.91830970918948e+005	(-3.28400372665020e+001dB,-7.45972630704460e+001°)
7.24435960075003e+005	(-3.32197062991369e+001dB,-7.48483612005762e+001°)
7.58577575029197e+005	(-3.36010431527379e+001dB,-7.50694007934900e+001°)
7.94328234724295e+005	(-3.39838782605832e+001dB,-7.52604196075666e+001°)
8.31763771102686e+005	(-3.43680534969950e+001dB,-7.54214516728384e+001°)
8.70963589956096e+005	(-3.47534213687433e+001dB,-7.55525176766146e+001°)
9.12010839355926e+005	(-3.51398441350586e+001dB,-7.56536162593381e+001°)
9.54992586021453e+005	(-3.55271928740823e+001dB,-7.57247161444639e+001°)
1.00000000000000e+006	(-3.59153465094836e+001dB,-7.57657490144650e+001°)
Step Information: Run=2  (Run: 2/40)
1.00000000000000e+001	(-5.71732064786660e+001dB,8.98923800719996e+001°)
1.04712854805090e+001	(-5.67732077784598e+001dB,8.98873080941686e+001°)
1.09647819614319e+001	(-5.63732092036797e+001dB,8.98819970803668e+001°)
1.14815362149688e+001	(-5.59732107664318e+001dB,8.98764357650245e+001°)
1.20226443461741e+001	(-5.55732124799909e+001dB,8.98706123516200e+001°)
1.25892541179417e+001	(-5.51732143589135e+001dB,8.98645144876528e+001°)
1.31825673855641e+001	(-5.47732164191624e+001dB,8.98581292384374e+001°)
1.38038426460289e+001	(-5.43732186782419e+001dB,8.98514430596614e+001°)
1.44543977074593e+001	(-5.39732211553472e+001dB,8.98444417686498e+001°)
1.51356124843621e+001	(-5.35732238715282e+001dB,8.98371105142736e+001°)
1.58489319246111e+001	(-5.31732268498684e+001dB,8.98294337454404e+001°)
1.65958690743756e+001	(-5.27732301156820e+001dB,8.98213951780983e+001°)
1.73780082874938e+001	(-5.23732336967300e+001dB,8.98129777606838e+001°)
1.81970085860999e+001	(-5.19732376234570e+001dB,8.98041636379399e+001°)
1.90546071796325e+001	(-5.15732419292511e+001dB,8.97949341130278e+001°)
1.99526231496888e+001	(-5.11732466507292e+001dB,8.97852696078511e+001°)
2.08929613085404e+001	(-5.07732518280503e+001dB,8.97751496215078e+001°)
2.18776162394956e+001	(-5.03732575052587e+001dB,8.97645526867822e+001°)
2.29086765276778e+001	(-4.99732637306613e+001dB,8.97534563245844e+001°)
2.39883291901949e+001	(-4.95732705572417e+001dB,8.97418369962380e+001°)
2.51188643150958e+001	(-4.91732780431142e+001dB,8.97296700535172e+001°)
2.63026799189539e+001	(-4.87732862520232e+001dB,8.97169296863243e+001°)
2.75422870333817e+001	(-4.83732952538906e+001dB,8.97035888678973e+001°)
2.88403150312661e+001	(-4.79733051254179e+001dB,8.96896192974296e+001°)
