Freq.	V(vgyr)
1.00000000000000e+000	(-4.33065407556778e-005dB,-1.35388435793970e-005°)
1.00230523807790e+000	(-4.33065407672498e-005dB,-1.35700538371469e-005°)
1.00461579027840e+000	(-4.33065407749644e-005dB,-1.36013360419714e-005°)
1.00693166885180e+000	(-4.33065407826791e-005dB,-1.36326903597257e-005°)
1.00925288607668e+000	(-4.33065407508562e-005dB,-1.36641169566473e-005°)
1.01157945425990e+000	(-4.33065407566421e-005dB,-1.36956159993566e-005°)
1.01391138573668e+000	(-4.33065407363912e-005dB,-1.37271876548587e-005°)
1.01624869287070e+000	(-4.33065407826791e-005dB,-1.37588320905429e-005°)
1.01859138805412e+000	(-4.33065407884651e-005dB,-1.37905494741854e-005°)
1.02093948370768e+000	(-4.33065408260741e-005dB,-1.38223399739482e-005°)
1.02329299228075e+000	(-4.33065408357174e-005dB,-1.38542037583818e-005°)
1.02565192625141e+000	(-4.33065408482537e-005dB,-1.38861409964246e-005°)
1.02801629812647e+000	(-4.33065408125734e-005dB,-1.39181518574048e-005°)
1.03038612044162e+000	(-4.33065408241454e-005dB,-1.39502365110404e-005°)
1.03276140576140e+000	(-4.33065408308957e-005dB,-1.39823951274413e-005°)
1.03514216667934e+000	(-4.33065408791123e-005dB,-1.40146278771091e-005°)
1.03752841581801e+000	(-4.33065408839340e-005dB,-1.40469349309389e-005°)
1.03992016582906e+000	(-4.33065408453607e-005dB,-1.40793164602198e-005°)
1.04231742939330e+000	(-4.33065408482537e-005dB,-1.41117726366346e-005°)
1.04472021922080e+000	(-4.33065408617544e-005dB,-1.41443036322632e-005°)
1.04712854805090e+000	(-4.33065408733263e-005dB,-1.41769096195816e-005°)
1.04954242865232e+000	(-4.33065408839340e-005dB,-1.42095907714635e-005°)
1.05196187382322e+000	(-4.33065409321506e-005dB,-1.42423472611810e-005°)
1.05438689639126e+000	(-4.33065409389009e-005dB,-1.42751792624062e-005°)
1.05681750921366e+000	(-4.33065409427583e-005dB,-1.43080869492106e-005°)
1.05925372517729e+000	(-4.33065409167213e-005dB,-1.43410704960681e-005°)
1.06169555719872e+000	(-4.33065409176856e-005dB,-1.43741300778534e-005°)
1.06414301822431e+000	(-4.33065409282933e-005dB,-1.44072658698455e-005°)
1.06659612123026e+000	(-4.33065409398653e-005dB,-1.44404780477270e-005°)
1.06905487922266e+000	(-4.33065409466156e-005dB,-1.44737667875857e-005°)
1.07151930523761e+000	(-4.33065409967609e-005dB,-1.45071322659148e-005°)
1.07398941234124e+000	(-4.33065409957966e-005dB,-1.45405746596153e-005°)
1.07646521362983e+000	(-4.33065410064042e-005dB,-1.45740941459951e-005°)
1.07894672222983e+000	(-4.33065409765099e-005dB,-1.46076909027715e-005°)
1.08143395129794e+000	(-4.33065409822959e-005dB,-1.46413651080708e-005°)
1.08392691402120e+000	(-4.33065409948322e-005dB,-1.46751169404303e-005°)
1.08642562361706e+000	(-4.33065409630092e-005dB,-1.47089465787991e-005°)
1.08893009333343e+000	(-4.33065410092972e-005dB,-1.47428542025381e-005°)
1.09144033644876e+000	(-4.33065410227978e-005dB,-1.47768399914227e-005°)
1.09395636627209e+000	(-4.33065410362985e-005dB,-1.48109041256418e-005°)
1.09647819614318e+000	(-4.33065410449775e-005dB,-1.48450467858004e-005°)
1.09900583943252e+000	(-4.33065410517278e-005dB,-1.48792681529192e-005°)
1.10153930954141e+000	(-4.33065410584781e-005dB,-1.49135684084365e-005°)
1.10407861990207e+000	(-4.33065410970514e-005dB,-1.49479477342087e-005°)
1.10662378397766e+000	(-4.33065410700501e-005dB,-1.49824063125122e-005°)
1.10917481526240e+000	(-4.33065410883724e-005dB,-1.50169443260423e-005°)
1.11173172728159e+000	(-4.33065410960871e-005dB,-1.50515619579164e-005°)
1.11429453359173e+000	(-4.33065411047661e-005dB,-1.50862593916736e-005°)
1.11686324778056e+000	(-4.33065411144094e-005dB,-1.51210368112763e-005°)
1.11943788346715e+000	(-4.33065411240527e-005dB,-1.51558944011109e-005°)
1.12201845430196e+000	(-4.33065411684120e-005dB,-1.51908323459886e-005°)
1.12460497396692e+000	(-4.33065411423750e-005dB,-1.52258508311478e-005°)
1.12719745617551e+000	(-4.33065411500897e-005dB,-1.52609500422521e-005°)
1.12979591467280e+000	(-4.33065411606974e-005dB,-1.52961301653944e-005°)
1.13240036323556e+000	(-4.33065411713050e-005dB,-1.53313913870961e-005°)
1.13501081567231e+000	(-4.33065411404464e-005dB,-1.53667338943091e-005°)
1.13762728582343e+000	(-4.33065411848057e-005dB,-1.54021578744148e-005°)
1.14024978756117e+000	(-4.33065411944490e-005dB,-1.54376635152287e-005°)
1.14287833478977e+000	(-4.33065412089140e-005dB,-1.54732510049977e-005°)
1.14551294144553e+000	(-4.33065412175930e-005dB,-1.55089205324033e-005°)
1.14815362149688e+000	(-4.33065412253076e-005dB,-1.55446722865616e-005°)
1.15080038894443e+000	(-4.33065412040923e-005dB,-1.55805064570253e-005°)
1.15345325782109e+000	(-4.33065412079496e-005dB,-1.56164232337830e-005°)
1.15611224219210e+000	(-4.33065412552019e-005dB,-1.56524228072618e-005°)
1.15877735615512e+000	(-4.33065412687026e-005dB,-1.56885053683284e-005°)
1.16144861384034e+000	(-4.33065412735242e-005dB,-1.57246711082888e-005°)
1.16412602941049e+000	(-4.33065412831676e-005dB,-1.57609202188899e-005°)
1.16680961706096e+000	(-4.33065412918466e-005dB,-1.57972528923212e-005°)
1.16949939101987e+000	(-4.33065412609879e-005dB,-1.58336693212150e-005°)
1.17219536554813e+000	(-4.33065413063115e-005dB,-1.58701696986469e-005°)
1.17489755493953e+000	(-4.33065413217409e-005dB,-1.59067542181389e-005°)
1.17760597352080e+000	(-4.33065413313842e-005dB,-1.59434230736582e-005°)
1.18032063565173e+000	(-4.33065413419918e-005dB,-1.59801764596196e-005°)
1.18304155572516e+000	(-4.33065413564568e-005dB,-1.60170145708858e-005°)
1.18576874816716e+000	(-4.33065414066021e-005dB,-1.60539376027685e-005°)
1.18850222743702e+000	(-4.33065414422824e-005dB,-1.60909457510304e-005°)
1.19124200802737e+000	(-4.33065414557830e-005dB,-1.61280392118850e-005°)
1.19398810446427e+000	(-4.33065414336034e-005dB,-1.61652181819983e-005°)
1.19674053130724e+000	(-4.33065414066021e-005dB,-1.62024828584892e-005°)
1.19949930314938e+000	(-4.33065414162454e-005dB,-1.62398334389310e-005°)
1.20226443461741e+000	(-4.33065414673550e-005dB,-1.62772701213528e-005°)
1.20503594037179e+000	(-4.33065414702480e-005dB,-1.63147931042408e-005°)
1.20781383510678e+000	(-4.33065414808557e-005dB,-1.63524025865377e-005°)
1.21059813355048e+000	(-4.33065414953207e-005dB,-1.63900987676453e-005°)
1.21338885046497e+000	(-4.33065414692837e-005dB,-1.64278818474252e-005°)
1.21618600064636e+000	(-4.33065414731410e-005dB,-1.64657520261990e-005°)
1.21898959892486e+000	(-4.33065415290723e-005dB,-1.65037095047507e-005°)
1.22179966016487e+000	(-4.33065415030353e-005dB,-1.65417544843279e-005°)
1.22461619926504e+000	(-4.33065415020710e-005dB,-1.65798871666404e-005°)
1.22743923115840e+000	(-4.33065415155716e-005dB,-1.66181077538641e-005°)
1.23026877081238e+000	(-4.33065415261793e-005dB,-1.66564164486409e-005°)
1.23310483322890e+000	(-4.33065415782532e-005dB,-1.66948134540793e-005°)
1.23594743344451e+000	(-4.33065415898252e-005dB,-1.67332989737570e-005°)
1.23879658653036e+000	(-4.33065415907896e-005dB,-1.67718732117201e-005°)
1.24165230759241e+000	(-4.33065416042902e-005dB,-1.68105363724854e-005°)
1.24451461177138e+000	(-4.33065416148979e-005dB,-1.68492886610411e-005°)
1.24738351424294e+000	(-4.33065416640788e-005dB,-1.68881302828477e-005°)
1.25025903021771e+000	(-4.33065416544355e-005dB,-1.69270614438403e-005°)
1.25314117494141e+000	(-4.33065416573285e-005dB,-1.69660823504276e-005°)
1.25602996369487e+000	(-4.33065416689005e-005dB,-1.70051932094946e-005°)
1.25892541179416e+000	(-4.33065416833655e-005dB,-1.70443942284031e-005°)
1.26182753459066e+000	(-4.33065416553998e-005dB,-1.70836856149933e-005°)
1.26473634747115e+000	(-4.33065417045808e-005dB,-1.71230675775835e-005°)
1.26765186585784e+000	(-4.33065417142241e-005dB,-1.71625403249737e-005°)
1.27057410520854e+000	(-4.33065417238674e-005dB,-1.72021040664443e-005°)
1.27350308101666e+000	(-4.33065417296534e-005dB,-1.72417590117582e-005°)
1.27643880881134e+000	(-4.33065417267604e-005dB,-1.72815053711621e-005°)
1.27938130415752e+000	(-4.33065417325464e-005dB,-1.73213433553871e-005°)
1.28233058265602e+000	(-4.33065417489400e-005dB,-1.73612731756502e-005°)
1.28528665994361e+000	(-4.33065417508687e-005dB,-1.74012950436555e-005°)
1.28824955169313e+000	(-4.33065417691910e-005dB,-1.74414091715948e-005°)
1.29121927361353e+000	(-4.33065417797987e-005dB,-1.74816157721493e-005°)
1.29419584144998e+000	(-4.33065417942637e-005dB,-1.75219150584904e-005°)
1.29717927098395e+000	(-4.33065418039070e-005dB,-1.75623072442809e-005°)
1.30016957803328e+000	(-4.33065418212650e-005dB,-1.76027925436760e-005°)
1.30316677845229e+000	(-4.33065417904063e-005dB,-1.76433711713253e-005°)
1.30617088813183e+000	(-4.33065418395873e-005dB,-1.76840433423716e-005°)
1.30918192299940e+000	(-4.33065418511593e-005dB,-1.77248092724556e-005°)
1.31219989901920e+000	(-4.33065418608026e-005dB,-1.77656691777139e-005°)
1.31522483219223e+000	(-4.33065418733389e-005dB,-1.78066232747817e-005°)
1.31825673855640e+000	(-4.33065418810536e-005dB,-1.78476717807934e-005°)
1.32129563418657e+000	(-4.33065419408422e-005dB,-1.78888149133839e-005°)
1.32434153519466e+000	(-4.33065419553072e-005dB,-1.79300528906907e-005°)
1.32739445772973e+000	(-4.33065419360205e-005dB,-1.79713859313532e-005°)
1.33045441797808e+000	(-4.33065419466282e-005dB,-1.80128142545147e-005°)
1.33352143216332e+000	(-4.33065419871301e-005dB,-1.80543380798241e-005°)
1.33659551654643e+000	(-4.33065420401684e-005dB,-1.80959576274365e-005°)
1.33967668742593e+000	(-4.33065420536690e-005dB,-1.81376731180152e-005°)
1.34276496113786e+000	(-4.33065420295607e-005dB,-1.81794847727316e-005°)
1.34586035405594e+000	(-4.33065420449901e-005dB,-1.82213928132662e-005°)
1.34896288259164e+000	(-4.33065420932067e-005dB,-1.82633974618113e-005°)
1.35207256319427e+000	(-4.33065420719914e-005dB,-1.83054989410722e-005°)
1.35518941235103e+000	(-4.33065420449901e-005dB,-1.83476974742664e-005°)
1.35831344658715e+000	(-4.33065420623480e-005dB,-1.83899932851257e-005°)
1.36144468246594e+000	(-4.33065420748844e-005dB,-1.84323865978988e-005°)
1.36458313658892e+000	(-4.33065421578169e-005dB,-1.84748776373502e-005°)
1.36772882559584e+000	(-4.33065421722819e-005dB,-1.85174666287643e-005°)
1.37088176616484e+000	(-4.33065421462449e-005dB,-1.85601537979434e-005°)
1.37404197501251e+000	(-4.33065421288870e-005dB,-1.86029393712102e-005°)
1.37720946889394e+000	(-4.33065422108552e-005dB,-1.86458235754090e-005°)
1.38038426460288e+000	(-4.33065421857826e-005dB,-1.86888066379090e-005°)
1.38356637897177e+000	(-4.33065421983189e-005dB,-1.87318887866011e-005°)
1.38675582887188e+000	(-4.33065422156769e-005dB,-1.87750702499029e-005°)
1.38995263121334e+000	(-4.33065422658221e-005dB,-1.88183512567577e-005°)
1.39315680294529e+000	(-4.33065422378565e-005dB,-1.88617320366383e-005°)
1.39636836105593e+000	(-4.33065422590718e-005dB,-1.89052128195442e-005°)
1.39958732257261e+000	(-4.33065422764298e-005dB,-1.89487938360065e-005°)
1.40281370456195e+000	(-4.33065423294681e-005dB,-1.89924753170871e-005°)
1.40604752412990e+000	(-4.33065423439331e-005dB,-1.90362574943815e-005°)
1.40928879842186e+000	(-4.33065423159674e-005dB,-1.90801406000185e-005°)
1.41253754462274e+000	(-4.33065423323611e-005dB,-1.91241248666612e-005°)
1.41579377995707e+000	(-4.33065423092171e-005dB,-1.91682105275105e-005°)
1.41905752168908e+000	(-4.33065423545407e-005dB,-1.92123978163034e-005°)
1.42232878712281e+000	(-4.33065423776847e-005dB,-1.92566869673171e-005°)
1.42560759360218e+000	(-4.33065423931140e-005dB,-1.93010782153683e-005°)
1.42889395851109e+000	(-4.33065423680414e-005dB,-1.93455717958151e-005°)
1.43218789927353e+000	(-4.33065424278300e-005dB,-1.93901679445570e-005°)
1.43548943335364e+000	(-4.33065424355446e-005dB,-1.94348668980397e-005°)
1.43879857825583e+000	(-4.33065424519383e-005dB,-1.94796688932518e-005°)
1.44211535152486e+000	(-4.33065424606173e-005dB,-1.95245741677293e-005°)
1.44543977074592e+000	(-4.33065424837612e-005dB,-1.95695829595553e-005°)
1.44877185354475e+000	(-4.33065424943689e-005dB,-1.96146955073622e-005°)
1.45211161758773e+000	(-4.33065424770109e-005dB,-1.96599120503325e-005°)
1.45545908058195e+000	(-4.33065425290849e-005dB,-1.97052328281986e-005°)
1.45881426027534e+000	(-4.33065425387282e-005dB,-1.97506580812479e-005°)
1.46217717445671e+000	(-4.33065425599435e-005dB,-1.97961880503203e-005°)
1.46554784095590e+000	(-4.33065425300492e-005dB,-1.98418229768114e-005°)
1.46892627764385e+000	(-4.33065425908021e-005dB,-1.98875631026720e-005°)
1.47231250243271e+000	(-4.33065426033384e-005dB,-1.99334086704127e-005°)
1.47570653327588e+000	(-4.33065426187678e-005dB,-1.99793599231020e-005°)
1.47910838816819e+000	(-4.33065426332327e-005dB,-2.00254171043687e-005°)
1.48251808514594e+000	(-4.33065426881997e-005dB,-2.00715804584031e-005°)
1.48593564228699e+000	(-4.33065426631270e-005dB,-2.01178502299596e-005°)
1.48936107771090e+000	(-4.33065426785564e-005dB,-2.01642266643551e-005°)
1.49279440957898e+000	(-4.33065426968787e-005dB,-2.02107100074730e-005°)
1.49623565609442e+000	(-4.33065427489526e-005dB,-2.02573005057632e-005°)
1.49968483550236e+000	(-4.33065427277373e-005dB,-2.03039984062447e-005°)
1.50314196609001e+000	(-4.33065427479883e-005dB,-2.03508039565042e-005°)
1.50660706618673e+000	(-4.33065427962049e-005dB,-2.03977174047003e-005°)
1.51008015416413e+000	(-4.33065428154915e-005dB,-2.04447389995636e-005°)
1.51356124843619e+000	(-4.33065427942762e-005dB,-2.04918689903984e-005°)
1.51705036745932e+000	(-4.33065428183845e-005dB,-2.05391076270822e-005°)
1.52054752973248e+000	(-4.33065428318852e-005dB,-2.05864551600701e-005°)
1.52405275379728e+000	(-4.33065428473145e-005dB,-2.06339118403940e-005°)
1.52756605823806e+000	(-4.33065428617795e-005dB,-2.06814779196643e-005°)
1.53108746168202e+000	(-4.33065429244611e-005dB,-2.07291536500714e-005°)
1.53461698279928e+000	(-4.33065429003528e-005dB,-2.07769392843884e-005°)
1.53815464030302e+000	(-4.33065429109604e-005dB,-2.08248350759689e-005°)
1.54170045294954e+000	(-4.33065429292828e-005dB,-2.08728412787519e-005°)
1.54525443953840e+000	(-4.33065429823210e-005dB,-2.09209581472612e-005°)
1.54881661891247e+000	(-4.33065429649630e-005dB,-2.09691859366085e-005°)
1.55238700995807e+000	(-4.33065429842497e-005dB,-2.10175249024920e-005°)
1.55596563160506e+000	(-4.33065430016077e-005dB,-2.10659753012003e-005°)
1.55955250282694e+000	(-4.33065430160727e-005dB,-2.11145373896126e-005°)
1.56314764264094e+000	(-4.33065430353593e-005dB,-2.11632114252002e-005°)
1.56675107010813e+000	(-4.33065430151083e-005dB,-2.12119976660285e-005°)
1.57036280433354e+000	(-4.33065430710396e-005dB,-2.12608963707560e-005°)
1.57398286446620e+000	(-4.33065431221492e-005dB,-2.13099077986397e-005°)
1.57761126969933e+000	(-4.33065431115416e-005dB,-2.13590322095338e-005°)
1.58124803927037e+000	(-4.33065431269709e-005dB,-2.14082698638902e-005°)
1.58489319246110e+000	(-4.33065431433645e-005dB,-2.14576210227622e-005°)
1.58854674859776e+000	(-4.33065431221492e-005dB,-2.15070859478052e-005°)
1.59220872705115e+000	(-4.33065431800091e-005dB,-2.15566649012762e-005°)
1.59587914723672e+000	(-4.33065432031531e-005dB,-2.16063581460390e-005°)
1.59955802861465e+000	(-4.33065432176181e-005dB,-2.16561659455618e-005°)
1.60324539069002e+000	(-4.33065432725850e-005dB,-2.17060885639203e-005°)
1.60694125301286e+000	(-4.33065432909074e-005dB,-2.17561262658000e-005°)
1.61064563517825e+000	(-4.33065433410526e-005dB,-2.18062793164950e-005°)
1.61435855682647e+000	(-4.33065433651609e-005dB,-2.18565479819126e-005°)
1.61808003764305e+000	(-4.33065433063367e-005dB,-2.19069325285725e-005°)
1.62181009735891e+000	(-4.33065433285163e-005dB,-2.19574332236071e-005°)
1.62554875575047e+000	(-4.33065433815546e-005dB,-2.20080503347667e-005°)
1.62929603263970e+000	(-4.33065434394145e-005dB,-2.20587841304182e-005°)
1.63305194789432e+000	(-4.33065434259139e-005dB,-2.21096348795479e-005°)
1.63681652142779e+000	(-4.33065434442362e-005dB,-2.21606028517606e-005°)
1.64058977319952e+000	(-4.33065434712375e-005dB,-2.22116883172834e-005°)
1.64437172321491e+000	(-4.33065434509865e-005dB,-2.22628915469671e-005°)
1.64816239152549e+000	(-4.33065435011318e-005dB,-2.23142128122849e-005°)
1.65196179822900e+000	(-4.33065435233114e-005dB,-2.23656523853379e-005°)
1.65576996346951e+000	(-4.33065435454911e-005dB,-2.24172105388534e-005°)
1.65958690743754e+000	(-4.33065435589917e-005dB,-2.24688875461878e-005°)
1.66341265037015e+000	(-4.33065435821357e-005dB,-2.25206836813271e-005°)
1.66724721255104e+000	(-4.33065436004580e-005dB,-2.25725992188895e-005°)
1.67109061431069e+000	(-4.33065436631396e-005dB,-2.26246344341254e-005°)
1.67494287602642e+000	(-4.33065436380670e-005dB,-2.26767896029218e-005°)
1.67880401812254e+000	(-4.33065436641040e-005dB,-2.27290650017987e-005°)
1.68267406107045e+000	(-4.33065437219639e-005dB,-2.27814609079154e-005°)
1.68655302538872e+000	(-4.33065437017129e-005dB,-2.28339775990707e-005°)
1.69044093164324e+000	(-4.33065437229282e-005dB,-2.28866153537018e-005°)
1.69433780044731e+000	(-4.33065437431792e-005dB,-2.29393744508892e-005°)
1.69824365246172e+000	(-4.33065437643945e-005dB,-2.29922551703564e-005°)
1.70215850839493e+000	(-4.33065437856098e-005dB,-2.30452577924717e-005°)
1.70608238900310e+000	(-4.33065438097181e-005dB,-2.30983825982498e-005°)
1.71001531509027e+000	(-4.33065438232188e-005dB,-2.31516298693530e-005°)
1.71395730750840e+000	(-4.33065438453984e-005dB,-2.32049998880931e-005°)
1.71790838715757e+000	(-4.33065438714354e-005dB,-2.32584929374325e-005°)
1.72186857498599e+000	(-4.33065438926507e-005dB,-2.33121093009863e-005°)
1.72583789199018e+000	(-4.33065439090443e-005dB,-2.33658492630229e-005°)
1.72981635921508e+000	(-4.33065439707616e-005dB,-2.34197131084659e-005°)
1.73380399775412e+000	(-4.33065439543680e-005dB,-2.34737011228972e-005°)
1.73780082874935e+000	(-4.33065440199426e-005dB,-2.35278135925542e-005°)
1.74180687339159e+000	(-4.33065440450152e-005dB,-2.35820508043373e-005°)
1.74582215292048e+000	(-4.33065440286215e-005dB,-2.36364130458066e-005°)
1.74984668862464e+000	(-4.33065440845528e-005dB,-2.36909006051842e-005°)
1.75388050184174e+000	(-4.33065440681592e-005dB,-2.37455137713592e-005°)
1.75792361395867e+000	(-4.33065440951605e-005dB,-2.38002528338840e-005°)
1.76197604641161e+000	(-4.33065441491631e-005dB,-2.38551180829798e-005°)
1.76603782068614e+000	(-4.33065441327694e-005dB,-2.39101098095377e-005°)
1.77010895831740e+000	(-4.33065441906294e-005dB,-2.39652283051168e-005°)
1.77418948089014e+000	(-4.33065442214880e-005dB,-2.40204738619510e-005°)
1.77827941003890e+000	(-4.33065442031657e-005dB,-2.40758467729470e-005°)
1.78237876744807e+000	(-4.33065442185950e-005dB,-2.41313473316855e-005°)
1.78648757485203e+000	(-4.33065442494536e-005dB,-2.41869758324252e-005°)
1.79060585403527e+000	(-4.33065443372079e-005dB,-2.42427325701025e-005°)
1.79473362683250e+000	(-4.33065442918843e-005dB,-2.42986178403359e-005°)
1.79887091512876e+000	(-4.33065443198499e-005dB,-2.43546319394216e-005°)
1.80301774085955e+000	(-4.33065444104971e-005dB,-2.44107751643406e-005°)
1.80717412601090e+000	(-4.33065443969965e-005dB,-2.44670478127606e-005°)
1.81134009261958e+000	(-4.33065443941035e-005dB,-2.45234501830325e-005°)
1.81551566277311e+000	(-4.33065444143545e-005dB,-2.45799825741957e-005°)
1.81970085860996e+000	(-4.33065444403914e-005dB,-2.46366452859796e-005°)
1.82389570231961e+000	(-4.33065444934297e-005dB,-2.46934386188040e-005°)
1.82810021614272e+000	(-4.33065445175380e-005dB,-2.47503628737821e-005°)
1.83231442237119e+000	(-4.33065445127164e-005dB,-2.48074183527207e-005°)
1.83653834334832e+000	(-4.33065445705763e-005dB,-2.48646053581212e-005°)
1.84077200146893e+000	(-4.33065445927559e-005dB,-2.49219241931845e-005°)
1.84501541917945e+000	(-4.33065446621879e-005dB,-2.49793751618084e-005°)
1.84926861897805e+000	(-4.33065446429012e-005dB,-2.50369585685938e-005°)
1.85353162341479e+000	(-4.33065447123331e-005dB,-2.50946747188402e-005°)
1.85780445509167e+000	(-4.33065447287268e-005dB,-2.51525239185544e-005°)
1.86208713666284e+000	(-4.33065447528351e-005dB,-2.52105064744465e-005°)
1.86637969083464e+000	(-4.33065447161905e-005dB,-2.52686226939350e-005°)
1.87068214036577e+000	(-4.33065447701931e-005dB,-2.53268728851445e-005°)
