Freq.	V(gyrator)
Step Information: Run=1  (Run: 1/30)
1.00000000000000e+001	(-7.34600645845971e+001dB,9.73605457044415e+001°)
1.04712854805090e+001	(-7.30519424070177e+001dB,9.77021698190250e+001°)
1.09647819614319e+001	(-7.26430541694450e+001dB,9.80591280203078e+001°)
1.14815362149688e+001	(-7.22333294273965e+001dB,9.84320330874797e+001°)
1.20226443461741e+001	(-7.18226916137256e+001dB,9.88215113047089e+001°)
1.25892541179417e+001	(-7.14110575759495e+001dB,9.92282010438156e+001°)
1.31825673855641e+001	(-7.09983370923515e+001dB,9.96527510299356e+001°)
1.38038426460289e+001	(-7.05844323688148e+001dB,1.00095818250753e+002°)
1.44543977074593e+001	(-7.01692375191309e+001dB,1.00558065467173e+002°)
1.51356124843621e+001	(-6.97526380324577e+001dB,1.01040158280867e+002°)
1.58489319246111e+001	(-6.93345102326875e+001dB,1.01542761712198e+002°)
1.65958690743756e+001	(-6.89147207357278e+001dB,1.02066536240683e+002°)
1.73780082874938e+001	(-6.84931259121229e+001dB,1.02612133259818e+002°)
1.81970085860999e+001	(-6.80695713640292e+001dB,1.03180189898827e+002°)
1.90546071796325e+001	(-6.76438914273196e+001dB,1.03771323166273e+002°)
1.99526231496888e+001	(-6.72159087115042e+001dB,1.04386123374629e+002°)
2.08929613085404e+001	(-6.67854336921913e+001dB,1.05025146811440e+002°)
2.18776162394956e+001	(-6.63522643729389e+001dB,1.05688907631925e+002°)
2.29086765276778e+001	(-6.59161860354902e+001dB,1.06377868960264e+002°)
2.39883291901949e+001	(-6.54769710994819e+001dB,1.07092433202797e+002°)
2.51188643150958e+001	(-6.50343791146357e+001dB,1.07832931596292e+002°)
2.63026799189539e+001	(-6.45881569100844e+001dB,1.08599613038597e+002°)
2.75422870333817e+001	(-6.41380389266585e+001dB,1.09392632277523e+002°)
2.88403150312661e+001	(-6.36837477585190e+001dB,1.10212037566558e+002°)
3.01995172040202e+001	(-6.32249949302310e+001dB,1.11057757932770e+002°)
3.16227766016838e+001	(-6.27614819340509e+001dB,1.11929590242091e+002°)
3.31131121482592e+001	(-6.22929015496050e+001dB,1.12827186289222e+002°)
3.46736850452532e+001	(-6.18189394641004e+001dB,1.13750040181844e+002°)
3.63078054770102e+001	(-6.13392762055459e+001dB,1.14697476329738e+002°)
3.80189396320562e+001	(-6.08535893940993e+001dB,1.15668638386202e+002°)
3.98107170553498e+001	(-6.03615563075729e+001dB,1.16662479518864e+002°)
4.16869383470336e+001	(-5.98628567464436e+001dB,1.17677754406334e+002°)
4.36515832240167e+001	(-5.93571761716690e+001dB,1.18713013362897e+002°)
4.57088189614876e+001	(-5.88442090756209e+001dB,1.19766598982348e+002°)
4.78630092322639e+001	(-5.83236625330675e+001dB,1.20836645661545e+002°)
5.01187233627273e+001	(-5.77952598660895e+001dB,1.21921082312522e+002°)
5.24807460249774e+001	(-5.72587443449290e+001dB,1.23017638498463e+002°)
5.49540873857626e+001	(-5.67138828369421e+001dB,1.24123854134482e+002°)
5.75439937337158e+001	(-5.61604693089475e+001dB,1.25237092781704e+002°)
6.02559586074359e+001	(-5.55983280851493e+001dB,1.26354558437083e+002°)
6.30957344480195e+001	(-5.50273167640689e+001dB,1.27473315587859e+002°)
6.60693448007598e+001	(-5.44473287039477e+001dB,1.28590312166119e+002°)
6.91830970918938e+001	(-5.38582949968783e+001dB,1.29702404913707e+002°)
7.24435960074992e+001	(-5.32601858671922e+001dB,1.30806386559189e+002°)
7.58577575029186e+001	(-5.26530114486623e+001dB,1.31899014124236e+002°)
7.94328234724284e+001	(-5.20368219168493e+001dB,1.32977037622921e+002°)
8.31763771102674e+001	(-5.14117069761742e+001dB,1.34037228397926e+002°)
8.70963589956084e+001	(-5.07777947246189e+001dB,1.35076406354185e+002°)
9.12010839355913e+001	(-5.01352499409529e+001dB,1.36091465401743e+002°)
9.54992586021439e+001	(-4.94842718587462e+001dB,1.37079396501756e+002°)
1.00000000000000e+002	(-4.88250915071321e+001dB,1.38037307816752e+002°)
1.04712854805090e+002	(-4.81579687095790e+001dB,1.38962441590859e+002°)
1.09647819614319e+002	(-4.74831888384568e+001dB,1.39852187519584e+002°)
1.14815362149689e+002	(-4.68010594249472e+001dB,1.40704092503401e+002°)
1.20226443461742e+002	(-4.61119067211769e+001dB,1.41515866807507e+002°)
1.25892541179417e+002	(-4.54160723049520e+001dB,1.42285386765225e+002°)
1.31825673855641e+002	(-4.47139098079392e+001dB,1.43010694260002e+002°)
1.38038426460289e+002	(-4.40057818364491e+001dB,1.43689993297980e+002°)
1.44543977074593e+002	(-4.32920571410345e+001dB,1.44321644038521e+002°)
1.51356124843621e+002	(-4.25731080777592e+001dB,1.44904154684263e+002°)
1.58489319246112e+002	(-4.18493083909376e+001dB,1.45436171647087e+002°)
1.65958690743757e+002	(-4.11210313349774e+001dB,1.45916468404200e+002°)
1.73780082874938e+002	(-4.03886481420867e+001dB,1.46343933442636e+002°)
1.81970085860999e+002	(-3.96525268332932e+001dB,1.46717557664198e+002°)
1.90546071796326e+002	(-3.89130313625841e+001dB,1.47036421589300e+002°)
1.99526231496889e+002	(-3.81705210780048e+001dB,1.47299682660609e+002°)
2.08929613085405e+002	(-3.74253504791495e+001dB,1.47506562908102e+002°)
2.18776162394956e+002	(-3.66778692474864e+001dB,1.47656337198536e+002°)
2.29086765276778e+002	(-3.59284225241591e+001dB,1.47748322255762e+002°)
2.39883291901950e+002	(-3.51773514090890e+001dB,1.47781866605143e+002°)
2.51188643150959e+002	(-3.44249936551234e+001dB,1.47756341566006e+002°)
2.63026799189540e+002	(-3.36716845314256e+001dB,1.47671133391167e+002°)
2.75422870333818e+002	(-3.29177578310776e+001dB,1.47525636631857e+002°)
2.88403150312662e+002	(-3.21635469987916e+001dB,1.47319248789805e+002°)
3.01995172040203e+002	(-3.14093863555475e+001dB,1.47051366305285e+002°)
3.16227766016840e+002	(-3.06556123977754e+001dB,1.46721381919999e+002°)
3.31131121482593e+002	(-2.99025651492787e+001dB,1.46328683446223e+002°)
3.46736850452534e+002	(-2.91505895443892e+001dB,1.45872653967795e+002°)
3.63078054770104e+002	(-2.84000368207960e+001dB,1.45352673493556e+002°)
3.80189396320564e+002	(-2.76512659001039e+001dB,1.44768122079023e+002°)
3.98107170553500e+002	(-2.69046447334278e+001dB,1.44118384426455e+002°)
4.16869383470338e+002	(-2.61605515882768e+001dB,1.43402855966347e+002°)
4.36515832240169e+002	(-2.54193762516580e+001dB,1.42620950413870e+002°)
4.57088189614878e+002	(-2.46815211228350e+001dB,1.41772108781340e+002°)
4.78630092322641e+002	(-2.39474021676129e+001dB,1.40855809811517e+002°)
5.01187233627276e+002	(-2.32174497045338e+001dB,1.39871581776084e+002°)
5.24807460249776e+002	(-2.24921089921220e+001dB,1.38819015558672e+002°)
5.49540873857628e+002	(-2.17718405855183e+001dB,1.37697778911975e+002°)
5.75439937337161e+002	(-2.10571204306981e+001dB,1.36507631744282e+002°)
6.02559586074362e+002	(-2.03484396652188e+001dB,1.35248442252359e+002°)
6.30957344480198e+002	(-1.96463040963147e+001dB,1.33920203676409e+002°)
6.60693448007601e+002	(-1.89512333303780e+001dB,1.32523051409757e+002°)
6.91830970918941e+002	(-1.82637595326066e+001dB,1.31057280153442e+002°)
7.24435960074995e+002	(-1.75844258019905e+001dB,1.29523360766107e+002°)
7.58577575029189e+002	(-1.69137841548713e+001dB,1.27921956425421e+002°)
7.94328234724287e+002	(-1.62523931199690e+001dB,1.26253937692002e+002°)
8.31763771102677e+002	(-1.56008149587820e+001dB,1.24520396053623e+002°)
8.70963589956087e+002	(-1.49596125372724e+001dB,1.22722655529133e+002°)
9.12010839355917e+002	(-1.43293458871852e+001dB,1.20862281931138e+002°)
9.54992586021443e+002	(-1.37105685075496e+001dB,1.18941089424819e+002°)
1.00000000000001e+003	(-1.31038234680840e+001dB,1.16961144078396e+002°)
1.04712854805091e+003	(-1.25096393855268e+001dB,1.14924764176783e+002°)
1.09647819614319e+003	(-1.19285263505554e+001dB,1.12834517161357e+002°)
1.14815362149689e+003	(-1.13609718862356e+001dB,1.10693213160397e+002°)
1.20226443461742e+003	(-1.08074370184275e+001dB,1.08503895180351e+002°)
1.25892541179418e+003	(-1.02683525340871e+001dB,1.06269826130527e+002°)
1.31825673855642e+003	(-9.74411549517262e+000dB,1.03994472945134e+002°)
1.38038426460290e+003	(-9.23508606450456e+000dB,1.01681488139674e+002°)
1.44543977074594e+003	(-8.74158468638212e+000dB,9.93346891879965e+001°)
1.51356124843622e+003	(-8.26388965027355e+000dB,9.69580361285136e+001°)
1.58489319246113e+003	(-7.80223505186700e+000dB,9.45556078021614e+001°)
1.65958690743757e+003	(-7.35680915348745e+000dB,9.21315770945943e+001°)
1.73780082874939e+003	(-6.92775313653048e+000dB,8.96901855054360e+001°)
1.81970085861000e+003	(-6.51516023284911e+000dB,8.72357173072337e+001°)
1.90546071796326e+003	(-6.11907522021019e+000dB,8.47724734952157e+001°)
1.99526231496890e+003	(-5.73949426869779e+000dB,8.23047456757824e+001°)
2.08929613085406e+003	(-5.37636512949292e+000dB,7.98367900044713e+001°)
2.18776162394957e+003	(-5.02958766352911e+000dB,7.73728012691315e+001°)
2.29086765276779e+003	(-4.69901471371319e+000dB,7.49168872225865e+001°)
2.39883291901951e+003	(-4.38445332924275e+000dB,7.24730432996856e+001°)
2.51188643150960e+003	(-4.08566635278434e+000dB,7.00451279013639e+001°)
2.63026799189541e+003	(-3.80237438012004e+000dB,6.76368384845851e+001°)
2.75422870333819e+003	(-3.53425809690286e+000dB,6.52516887534268e+001°)
2.88403150312663e+003	(-3.28096098867851e+000dB,6.28929872928470e+001°)
3.01995172040204e+003	(-3.04209240902009e+000dB,6.05638180150684e+001°)
3.16227766016841e+003	(-2.81723097752793e+000dB,5.82670227935845e+001°)
3.31131121482594e+003	(-2.60592826599948e+000dB,5.60051866378368e+001°)
3.46736850452535e+003	(-2.40771271847001e+000dB,5.37806257141727e+001°)
3.63078054770105e+003	(-2.22209374041594e+000dB,5.15953784480518e+001°)
3.80189396320565e+003	(-2.04856588498858e+000dB,4.94511998551708e+001°)
3.98107170553501e+003	(-1.88661306043359e+000dB,4.73495591513522e+001°)
4.16869383470339e+003	(-1.73571268286735e+000dB,4.52916405912057e+001°)
4.36515832240170e+003	(-1.59533970232169e+000dB,4.32783473899073e+001°)
4.57088189614880e+003	(-1.46497043684412e+000dB,4.13103084977106e+001°)
4.78630092322643e+003	(-1.34408615882399e+000dB,3.93878879272251e+001°)
5.01187233627277e+003	(-1.23217638879392e+000dB,3.75111962819596e+001°)
5.24807460249778e+003	(-1.12874186390690e+000dB,3.56801041022230e+001°)
5.49540873857630e+003	(-1.03329716040663e+000dB,3.38942566305364e+001°)
5.75439937337163e+003	(-9.45372960915110e-001dB,3.21530896020291e+001°)
6.02559586074364e+003	(-8.64517967891511e-001dB,3.04558456828109e+001°)
6.30957344480200e+003	(-7.90300473693342e-001dB,2.88015912084457e+001°)
6.60693448007603e+003	(-7.22309605193121e-001dB,2.71892329119540e+001°)
6.91830970918944e+003	(-6.60156266667079e-001dB,2.56175343735386e+001°)
7.24435960074998e+003	(-6.03473808881438e-001dB,2.40851319692789e+001°)
7.58577575029192e+003	(-5.51918454928728e-001dB,2.25905501414786e+001°)
7.94328234724290e+003	(-5.05169514669258e-001dB,2.11322158571018e+001°)
8.31763771102680e+003	(-4.62929419775770e-001dB,1.97084721615517e+001°)
8.70963589956090e+003	(-4.24923610610107e-001dB,1.83175907719662e+001°)
9.12010839355919e+003	(-3.90900304687418e-001dB,1.69577836867455e+001°)
9.54992586021446e+003	(-3.60630174416711e-001dB,1.56272138161279e+001°)
1.00000000000001e+004	(-3.33905959488856e-001dB,1.43240046620872e+001°)
1.04712854805091e+004	(-3.10542036636244e-001dB,1.30462490952454e+001°)
1.09647819614320e+004	(-2.90373966835284e-001dB,1.17920172919324e+001°)
1.14815362149690e+004	(-2.73258037320708e-001dB,1.05593639066201e+001°)
1.20226443461743e+004	(-2.59070813060608e-001dB,9.34633456419745e+000°)
1.25892541179418e+004	(-2.47708709872001e-001dB,8.15097176314818e+000°)
1.31825673855642e+004	(-2.39087598783927e-001dB,6.97132028547290e+000°)
1.38038426460290e+004	(-2.33142448996436e-001dB,5.80543221212321e+000°)
1.44543977074594e+004	(-2.29827014456022e-001dB,4.65137164445229e+000°)
1.51356124843623e+004	(-2.29113566989447e-001dB,3.50721923272806e+000°)
1.58489319246113e+004	(-2.30992676788419e-001dB,2.37107661244590e+000°)
1.65958690743758e+004	(-2.35473039030564e-001dB,1.24107084802449e+000°)
1.73780082874940e+004	(-2.42581343392337e-001dB,1.15358981524985e-001°)
1.81970085861000e+004	(-2.52362181130024e-001dB,-1.00786721875926e+000°)
1.90546071796327e+004	(-2.64877982397194e-001dB,-2.13037621874685e+000°)
1.99526231496890e+004	(-2.80208974275136e-001dB,-3.25389130191005e+000°)
2.08929613085406e+004	(-2.98453147839371e-001dB,-4.38008469576245e+000°)
2.18776162394958e+004	(-3.19726220355736e-001dB,-5.51057116986558e+000°)
2.29086765276780e+004	(-3.44161576346821e-001dB,-6.64690104411906e+000°)
2.39883291901952e+004	(-3.71910169068770e-001dB,-7.79055255885589e+000°)
2.51188643150961e+004	(-4.03140361554135e-001dB,-8.94292357428271e+000°)
2.63026799189541e+004	(-4.38037684370946e-001dB,-1.01053225859346e+001°)
2.75422870333820e+004	(-4.76804485207819e-001dB,-1.12789590660012e+001°)
2.88403150312664e+004	(-5.19659443917924e-001dB,-1.24649331673405e+001°)
3.01995172040205e+004	(-5.66836925512294e-001dB,-1.36642248583108e+001°)
3.16227766016842e+004	(-6.18586143255220e-001dB,-1.48776825917492e+001°)
3.31131121482595e+004	(-6.75170104491266e-001dB,-1.61060116502996e+001°)
3.46736850452536e+004	(-7.36864313414705e-001dB,-1.73497623520958e+001°)
3.63078054770106e+004	(-8.03955207916279e-001dB,-1.86093183441518e+001°)
3.80189396320566e+004	(-8.76738311983769e-001dB,-1.98848852543775e+001°)
3.98107170553502e+004	(-9.55516091180720e-001dB,-2.11764800144595e+001°)
4.16869383470341e+004	(-1.04059550646455e+000dB,-2.24839212025081e+001°)
4.36515832240172e+004	(-1.13228527104158e+000dB,-2.38068207833368e+001°)
4.57088189614881e+004	(-1.23089282598196e+000dB,-2.51445776421846e+001°)
4.78630092322645e+004	(-1.33672106265432e+000dB,-2.64963733113476e+001°)
5.01187233627279e+004	(-1.45006483319598e+000dB,-2.78611702755321e+001°)
5.24807460249780e+004	(-1.57120730372055e+000dB,-2.92377132081073e+001°)
5.49540873857632e+004	(-1.70041621795038e+000dB,-3.06245334354313e+001°)
5.75439937337165e+004	(-1.83794015065008e+000dB,-3.20199568495132e+001°)
6.02559586074366e+004	(-1.98400483972239e+000dB,-3.34221153918864e+001°)
6.30957344480202e+004	(-2.13880969219249e+000dB,-3.48289621166623e+001°)
6.60693448007605e+004	(-2.30252456183400e+000dB,-3.62382897129652e+001°)
6.91830970918946e+004	(-2.47528689419785e+000dB,-3.76477522331141e+001°)
7.24435960075000e+004	(-2.65719932809585e+000dB,-3.90548896400117e+001°)
7.58577575029194e+004	(-2.84832783105116e+000dB,-4.04571546644000e+001°)
7.94328234724293e+004	(-3.04870043037182e+000dB,-4.18519413573964e+001°)
8.31763771102683e+004	(-3.25830658200657e+000dB,-4.32366146440612e+001°)
8.70963589956093e+004	(-3.47709719732219e+000dB,-4.46085401349847e+001°)
9.12010839355923e+004	(-3.70498532461567e+000dB,-4.59651134395358e+001°)
9.54992586021450e+004	(-3.94184745911159e+000dB,-4.73037882460887e+001°)
1.00000000000001e+005	(-4.18752543358797e+000dB,-4.86221024913333e+001°)
1.04712854805091e+005	(-4.44182882305617e+000dB,-4.99177020268743e+001°)
1.09647819614320e+005	(-4.70453778197668e+000dB,-5.11883613016642e+001°)
1.14815362149690e+005	(-4.97540622207511e+000dB,-5.24320007046924e+001°)
1.20226443461743e+005	(-5.25416523314760e+000dB,-5.36467003465474e+001°)
1.25892541179419e+005	(-5.54052664834837e+000dB,-5.48307101915424e+001°)
1.31825673855643e+005	(-5.83418665887733e+000dB,-5.59824565775963e+001°)
1.38038426460291e+005	(-6.13482939010678e+000dB,-5.71005452725057e+001°)
1.44543977074595e+005	(-6.44213036121189e+000dB,-5.81837613083608e+001°)
1.51356124843623e+005	(-6.75575976238022e+000dB,-5.92310659078700e+001°)
1.58489319246114e+005	(-7.07538549677686e+000dB,-6.02415908668873e+001°)
1.65958690743759e+005	(-7.40067594783436e+000dB,-6.12146307863903e+001°)
1.73780082874940e+005	(-7.73130244537313e+000dB,-6.21496335573831e+001°)
1.81970085861001e+005	(-8.06694141602627e+000dB,-6.30461894952147e+001°)
1.90546071796328e+005	(-8.40727621402782e+000dB,-6.39040194999348e+001°)
1.99526231496891e+005	(-8.75199863736984e+000dB,-6.47229625889828e+001°)
2.08929613085407e+005	(-9.10081014158264e+000dB,-6.55029631115602e+001°)
2.18776162394959e+005	(-9.45342276891066e+000dB,-6.62440579129327e+001°)
2.29086765276781e+005	(-9.80955981457816e+000dB,-6.69463636747667e+001°)
2.39883291901953e+005	(-1.01689562543089e+001dB,-6.76100646156246e+001°)
2.51188643150962e+005	(-1.05313589584856e+001dB,-6.82354006964895e+001°)
2.63026799189542e+005	(-1.08965267185189e+001dB,-6.88226564397915e+001°)
2.75422870333821e+005	(-1.12642301103646e+001dB,-6.93721504383042e+001°)
2.88403150312665e+005	(-1.16342512188572e+001dB,-6.98842256023355e+001°)
3.01995172040206e+005	(-1.20063832448379e+001dB,-7.03592401702153e+001°)
3.16227766016843e+005	(-1.23804300150541e+001dB,-7.07975594878554e+001°)
3.31131121482596e+005	(-1.27562054126713e+001dB,-7.11995485479495e+001°)
3.46736850452537e+005	(-1.31335327440295e+001dB,-7.15655652678996e+001°)
3.63078054770107e+005	(-1.35122440551177e+001dB,-7.18959544771623e+001°)
3.80189396320567e+005	(-1.38921794091486e+001dB,-7.21910425792066e+001°)
3.98107170553504e+005	(-1.42731861346673e+001dB,-7.24511328501477e+001°)
4.16869383470342e+005	(-1.46551180518428e+001dB,-7.26765013349438e+001°)
4.36515832240173e+005	(-1.50378346829612e+001dB,-7.28673933025268e+001°)
4.57088189614883e+005	(-1.54212004517110e+001dB,-7.30240202230666e+001°)
4.78630092322646e+005	(-1.58050838745957e+001dB,-7.31465572333549e+001°)
5.01187233627281e+005	(-1.61893567467298e+001dB,-7.32351410600319e+001°)
5.24807460249781e+005	(-1.65738933233747e+001dB,-7.32898683746945e+001°)
5.49540873857634e+005	(-1.69585694978337e+001dB,-7.33107945596332e+001°)
5.75439937337167e+005	(-1.73432619757399e+001dB,-7.32979328682127e+001°)
6.02559586074368e+005	(-1.77278474453513e+001dB,-7.32512539692460e+001°)
6.30957344480204e+005	(-1.81122017431748e+001dB,-7.31706858703649e+001°)
6.60693448007607e+005	(-1.84961990141052e+001dB,-7.30561142210780e+001°)
6.91830970918948e+005	(-1.88797108652715e+001dB,-7.29073830020278e+001°)
7.24435960075003e+005	(-1.92626055129097e+001dB,-7.27242956127112e+001°)
7.58577575029197e+005	(-1.96447469218831e+001dB,-7.25066163757166e+001°)
7.94328234724295e+005	(-2.00259939379044e+001dB,-7.22540724811349e+001°)
8.31763771102686e+005	(-2.04061994131021e+001dB,-7.19663564002187e+001°)
8.70963589956096e+005	(-2.07852093263403e+001dB,-7.16431288025272e+001°)
9.12010839355926e+005	(-2.11628619006317e+001dB,-7.12840220154638e+001°)
9.54992586021453e+005	(-2.15389867210982e+001dB,-7.08886440692452e+001°)
1.00000000000000e+006	(-2.19134038582439e+001dB,-7.04565833736636e+001°)
Step Information: Run=2  (Run: 2/30)
1.00000000000000e+001	(-7.21180317930813e+001dB,9.71326619148442e+001°)
1.04712854805090e+001	(-7.17101852620825e+001dB,9.74637999352709e+001°)
1.09647819614319e+001	(-7.13015981558682e+001dB,9.78098143191557e+001°)
1.14815362149688e+001	(-7.08922022724298e+001dB,9.81713013954772e+001°)
1.20226443461741e+001	(-7.04819234621861e+001dB,9.85488709119162e+001°)
1.25892541179417e+001	(-7.00706811746096e+001dB,9.89431446986217e+001°)
1.31825673855641e+001	(-6.96583879832120e+001dB,9.93547550274359e+001°)
1.38038426460289e+001	(-6.92449490906009e+001dB,9.97843426281472e+001°)
1.44543977074593e+001	(-6.88302618160668e+001dB,1.00232554320551e+002°)
1.51356124843621e+001	(-6.84142150690329e+001dB,1.00700040218550e+002°)
1.58489319246111e+001	(-6.79966888127318e+001dB,1.01187450460387e+002°)
1.65958690743756e+001	(-6.75775535236628e+001dB,1.01695431417521e+002°)
1.73780082874938e+001	(-6.71566696537366e+001dB,1.02224621333927e+002°)
1.81970085860999e+001	(-6.67338871035492e+001dB,1.02775645347930e+002°)
1.90546071796325e+001	(-6.63090447169260e+001dB,1.03349109850385e+002°)
1.99526231496888e+001	(-6.58819698087381e+001dB,1.03945596136536e+002°)
2.08929613085404e+001	(-6.54524777399936e+001dB,1.04565653314487e+002°)
2.18776162394956e+001	(-6.50203715563040e+001dB,1.05209790441416e+002°)
2.29086765276778e+001	(-6.45854417079810e+001dB,1.05878467869874e+002°)
2.39883291901949e+001	(-6.41474658721371e+001dB,1.06572087801154e+002°)
2.51188643150958e+001	(-6.37062088991725e+001dB,1.07290984061161e+002°)
2.63026799189539e+001	(-6.32614229077872e+001dB,1.08035411136876e+002°)
2.75422870333817e+001	(-6.28128475540298e+001dB,1.08805532538393e+002°)
2.88403150312661e+001	(-6.23602105006965e+001dB,1.09601408582842e+002°)
