Freq.	V(n004)/V(n001)
Step Information: 1=1  (Run: 1/11)
1.00000000000000e+001	(-1.26444326356556e+001dB,1.79993879854213e+002°)
1.02329299228075e+001	(-1.26444326218090e+001dB,1.79993737349142e+002°)
1.04712854805090e+001	(-1.26444326201159e+001dB,1.79993591497584e+002°)
1.07151930523761e+001	(-1.26444326160918e+001dB,1.79993442152577e+002°)
1.09647819614319e+001	(-1.26444326374111e+001dB,1.79993289440753e+002°)
1.12201845430196e+001	(-1.26444325992768e+001dB,1.79993133142833e+002°)
1.14815362149688e+001	(-1.26444325996039e+001dB,1.79992973186813e+002°)
1.17489755493953e+001	(-1.26444326378913e+001dB,1.79992809492552e+002°)
1.20226443461741e+001	(-1.26444326081530e+001dB,1.79992642048136e+002°)
1.23026877081238e+001	(-1.26444326082827e+001dB,1.79992470615273e+002°)
1.25892541179417e+001	(-1.26444326165753e+001dB,1.79992295339453e+002°)
1.28824955169313e+001	(-1.26444326113280e+001dB,1.79992115806656e+002°)
1.31825673855641e+001	(-1.26444326059843e+001dB,1.79991932140414e+002°)
1.34896288259165e+001	(-1.26444326069049e+001dB,1.79991744198114e+002°)
1.38038426460288e+001	(-1.26444325993353e+001dB,1.79991551903385e+002°)
1.41253754462275e+001	(-1.26444325895533e+001dB,1.79991355161404e+002°)
1.44543977074593e+001	(-1.26444325979148e+001dB,1.79991153774316e+002°)
1.47910838816821e+001	(-1.26444325884342e+001dB,1.79990947681586e+002°)
1.51356124843621e+001	(-1.26444325954499e+001dB,1.79990736922059e+002°)
1.54881661891248e+001	(-1.26444326039723e+001dB,1.79990521086533e+002°)
1.58489319246111e+001	(-1.26444325850117e+001dB,1.79990300254001e+002°)
1.62181009735893e+001	(-1.26444325938165e+001dB,1.79990074305313e+002°)
1.65958690743756e+001	(-1.26444326012803e+001dB,1.79989843164563e+002°)
1.69824365246174e+001	(-1.26444325852157e+001dB,1.79989606530477e+002°)
1.73780082874937e+001	(-1.26444325586403e+001dB,1.79989364489005e+002°)
1.77827941003892e+001	(-1.26444325836110e+001dB,1.79989116735178e+002°)
1.81970085860998e+001	(-1.26444325886159e+001dB,1.79988863232759e+002°)
1.86208713666287e+001	(-1.26444325794367e+001dB,1.79988603853680e+002°)
1.90546071796325e+001	(-1.26444325617555e+001dB,1.79988338342562e+002°)
1.94984459975804e+001	(-1.26444325693213e+001dB,1.79988066745072e+002°)
1.99526231496888e+001	(-1.26444325585319e+001dB,1.79987788770246e+002°)
2.04173794466953e+001	(-1.26444325699699e+001dB,1.79987504358273e+002°)
2.08929613085404e+001	(-1.26444325599186e+001dB,1.79987213321663e+002°)
2.13796208950223e+001	(-1.26444325407260e+001dB,1.79986915449937e+002°)
2.18776162394955e+001	(-1.26444325458207e+001dB,1.79986610707555e+002°)
2.23872113856834e+001	(-1.26444325451998e+001dB,1.79986298875813e+002°)
2.29086765276777e+001	(-1.26444325369546e+001dB,1.79985979612129e+002°)
2.34422881531992e+001	(-1.26444325401930e+001dB,1.79985653112427e+002°)
2.39883291901949e+001	(-1.26444325386883e+001dB,1.79985318919408e+002°)
2.45470891568503e+001	(-1.26444325443366e+001dB,1.79984976956380e+002°)
2.51188643150958e+001	(-1.26444325337273e+001dB,1.79984627078005e+002°)
2.57039578276886e+001	(-1.26444325219673e+001dB,1.79984268899312e+002°)
2.63026799189538e+001	(-1.26444325100893e+001dB,1.79983902413454e+002°)
2.69153480392691e+001	(-1.26444325094621e+001dB,1.79983527496962e+002°)
2.75422870333816e+001	(-1.26444324997619e+001dB,1.79983143832692e+002°)
2.81838293126445e+001	(-1.26444325096834e+001dB,1.79982751203945e+002°)
2.88403150312660e+001	(-1.26444324939749e+001dB,1.79982349464636e+002°)
2.95120922666638e+001	(-1.26444324952049e+001dB,1.79981938416697e+002°)
3.01995172040201e+001	(-1.26444324818232e+001dB,1.79981517549349e+002°)
3.09029543251359e+001	(-1.26444324785256e+001dB,1.79981087122787e+002°)
3.16227766016838e+001	(-1.26444324710412e+001dB,1.79980646424461e+002°)
3.23593656929628e+001	(-1.26444324731340e+001dB,1.79980195688275e+002°)
3.31131121482591e+001	(-1.26444324561828e+001dB,1.79979734444421e+002°)
3.38844156139202e+001	(-1.26444324405602e+001dB,1.79979262419353e+002°)
3.46736850452531e+001	(-1.26444324359119e+001dB,1.79978779323778e+002°)
3.54813389233575e+001	(-1.26444324341575e+001dB,1.79978285104670e+002°)
3.63078054770101e+001	(-1.26444324268741e+001dB,1.79977779316728e+002°)
3.71535229097172e+001	(-1.26444324090436e+001dB,1.79977261653473e+002°)
3.80189396320561e+001	(-1.26444323999617e+001dB,1.79976732015178e+002°)
3.89045144994280e+001	(-1.26444323870554e+001dB,1.79976190067454e+002°)
3.98107170553497e+001	(-1.26444323750374e+001dB,1.79975635425989e+002°)
4.07380277804112e+001	(-1.26444323613350e+001dB,1.79975067957980e+002°)
4.16869383470335e+001	(-1.26444323536380e+001dB,1.79974487133415e+002°)
4.26579518801592e+001	(-1.26444323417753e+001dB,1.79973892930381e+002°)
4.36515832240165e+001	(-1.26444323257679e+001dB,1.79973284746948e+002°)
4.46683592150962e+001	(-1.26444323123628e+001dB,1.79972662516179e+002°)
4.57088189614874e+001	(-1.26444323044442e+001dB,1.79972025781637e+002°)
4.67735141287197e+001	(-1.26444322817029e+001dB,1.79971374187613e+002°)
4.78630092322638e+001	(-1.26444322655625e+001dB,1.79970707343890e+002°)
4.89778819368445e+001	(-1.26444322508008e+001dB,1.79970025039204e+002°)
5.01187233627271e+001	(-1.26444322316877e+001dB,1.79969326898710e+002°)
5.12861383991364e+001	(-1.26444322108646e+001dB,1.79968612389915e+002°)
5.24807460249772e+001	(-1.26444321958347e+001dB,1.79967881269744e+002°)
5.37031796370252e+001	(-1.26444321742546e+001dB,1.79967133128345e+002°)
5.49540873857624e+001	(-1.26444321543777e+001dB,1.79966367605588e+002°)
5.62341325190348e+001	(-1.26444321280969e+001dB,1.79965584168135e+002°)
5.75439937337156e+001	(-1.26444321026452e+001dB,1.79964782489743e+002°)
5.88843655355588e+001	(-1.26444320810748e+001dB,1.79963962160235e+002°)
6.02559586074357e+001	(-1.26444320553967e+001dB,1.79963122742918e+002°)
6.16595001861481e+001	(-1.26444320256717e+001dB,1.79962263786362e+002°)
6.30957344480192e+001	(-1.26444319984013e+001dB,1.79961384790691e+002°)
6.45654229034654e+001	(-1.26444319697468e+001dB,1.79960485313858e+002°)
6.60693448007595e+001	(-1.26444319377284e+001dB,1.79959564916411e+002°)
6.76082975391980e+001	(-1.26444319040605e+001dB,1.79958623060767e+002°)
6.91830970918935e+001	(-1.26444318713579e+001dB,1.79957659266448e+002°)
7.07945784384136e+001	(-1.26444318318196e+001dB,1.79956673011243e+002°)
7.24435960074988e+001	(-1.26444317952081e+001dB,1.79955663841756e+002°)
7.41310241300916e+001	(-1.26444317571196e+001dB,1.79954631114318e+002°)
7.58577575029182e+001	(-1.26444317149595e+001dB,1.79953574316146e+002°)
7.76247116628690e+001	(-1.26444316703642e+001dB,1.79952492947187e+002°)
7.94328234724279e+001	(-1.26444316273639e+001dB,1.79951386333365e+002°)
8.12830516164097e+001	(-1.26444315793712e+001dB,1.79950253997420e+002°)
8.31763771102669e+001	(-1.26444315299663e+001dB,1.79949095219170e+002°)
8.51138038202374e+001	(-1.26444314772095e+001dB,1.79947909524428e+002°)
8.70963589956078e+001	(-1.26444314222562e+001dB,1.79946696178040e+002°)
8.91250938133743e+001	(-1.26444313658677e+001dB,1.79945454605421e+002°)
9.12010839355907e+001	(-1.26444313065042e+001dB,1.79944184050290e+002°)
9.33254300796988e+001	(-1.26444312443477e+001dB,1.79942883929018e+002°)
9.54992586021433e+001	(-1.26444311788457e+001dB,1.79941553560316e+002°)
9.77237220955808e+001	(-1.26444311101473e+001dB,1.79940192185973e+002°)
9.99999999999997e+001	(-1.26444310371720e+001dB,1.79938799027647e+002°)
1.02329299228075e+002	(-1.26444309606043e+001dB,1.79937373460899e+002°)
1.04712854805090e+002	(-1.26444308837194e+001dB,1.79935914726899e+002°)
1.07151930523760e+002	(-1.26444308008720e+001dB,1.79934421993375e+002°)
1.09647819614318e+002	(-1.26444307128018e+001dB,1.79932894474742e+002°)
1.12201845430196e+002	(-1.26444306238455e+001dB,1.79931331368341e+002°)
1.14815362149688e+002	(-1.26444305291700e+001dB,1.79929731884966e+002°)
1.17489755493953e+002	(-1.26444304308417e+001dB,1.79928095141601e+002°)
1.20226443461741e+002	(-1.26444303268516e+001dB,1.79926420276168e+002°)
1.23026877081238e+002	(-1.26444302187228e+001dB,1.79924706343458e+002°)
1.25892541179416e+002	(-1.26444301033486e+001dB,1.79922952537393e+002°)
1.28824955169313e+002	(-1.26444299852703e+001dB,1.79921157869979e+002°)
1.31825673855640e+002	(-1.26444298604981e+001dB,1.79919321443380e+002°)
1.34896288259165e+002	(-1.26444297295490e+001dB,1.79917442178675e+002°)
1.38038426460288e+002	(-1.26444295923714e+001dB,1.79915519149306e+002°)
1.41253754462275e+002	(-1.26444294495868e+001dB,1.79913551348333e+002°)
1.44543977074592e+002	(-1.26444292994864e+001dB,1.79911537712604e+002°)
1.47910838816820e+002	(-1.26444291424571e+001dB,1.79909477160348e+002°)
1.51356124843620e+002	(-1.26444289779690e+001dB,1.79907368584436e+002°)
1.54881661891248e+002	(-1.26444288056745e+001dB,1.79905210951937e+002°)
1.58489319246111e+002	(-1.26444286252665e+001dB,1.79903003023198e+002°)
1.62181009735892e+002	(-1.26444284362974e+001dB,1.79900743675797e+002°)
1.65958690743755e+002	(-1.26444282389995e+001dB,1.79898431720583e+002°)
1.69824365246174e+002	(-1.26444280310888e+001dB,1.79896065870673e+002°)
1.73780082874937e+002	(-1.26444278144630e+001dB,1.79893644932801e+002°)
1.77827941003892e+002	(-1.26444275869876e+001dB,1.79891167618621e+002°)
1.81970085860998e+002	(-1.26444273493121e+001dB,1.79888632590019e+002°)
1.86208713666286e+002	(-1.26444271003716e+001dB,1.79886038518571e+002°)
1.90546071796324e+002	(-1.26444268392406e+001dB,1.79883383985077e+002°)
1.94984459975804e+002	(-1.26444265665575e+001dB,1.79880667671436e+002°)
1.99526231496887e+002	(-1.26444262805974e+001dB,1.79877888056717e+002°)
2.04173794466952e+002	(-1.26444259810692e+001dB,1.79875043712741e+002°)
2.08929613085403e+002	(-1.26444256676514e+001dB,1.79872133103997e+002°)
2.13796208950222e+002	(-1.26444253395757e+001dB,1.79869154697468e+002°)
2.18776162394954e+002	(-1.26444249953843e+001dB,1.79866106918822e+002°)
2.23872113856833e+002	(-1.26444246361321e+001dB,1.79862988157796e+002°)
2.29086765276776e+002	(-1.26444242592195e+001dB,1.79859796759291e+002°)
2.34422881531991e+002	(-1.26444238641263e+001dB,1.79856530999942e+002°)
2.39883291901948e+002	(-1.26444234507781e+001dB,1.79853189172219e+002°)
2.45470891568502e+002	(-1.26444230182148e+001dB,1.79849769526796e+002°)
2.51188643150957e+002	(-1.26444225651096e+001dB,1.79846270206556e+002°)
2.57039578276885e+002	(-1.26444220908179e+001dB,1.79842689386756e+002°)
2.63026799189537e+002	(-1.26444215937548e+001dB,1.79839025169419e+002°)
2.69153480392690e+002	(-1.26444210735593e+001dB,1.79835275568074e+002°)
2.75422870333816e+002	(-1.26444205287046e+001dB,1.79831438652625e+002°)
2.81838293126444e+002	(-1.26444199580565e+001dB,1.79827512367433e+002°)
2.88403150312659e+002	(-1.26444193609482e+001dB,1.79823494625545e+002°)
2.95120922666637e+002	(-1.26444187355681e+001dB,1.79819383302460e+002°)
3.01995172040200e+002	(-1.26444180806125e+001dB,1.79815176210535e+002°)
3.09029543251358e+002	(-1.26444173946494e+001dB,1.79810871094833e+002°)
3.16227766016837e+002	(-1.26444166766087e+001dB,1.79806465748933e+002°)
3.23593656929627e+002	(-1.26444159245453e+001dB,1.79801957769843e+002°)
3.31131121482590e+002	(-1.26444151369405e+001dB,1.79797344757599e+002°)
3.38844156139201e+002	(-1.26444143125714e+001dB,1.79792624345407e+002°)
3.46736850452530e+002	(-1.26444134490726e+001dB,1.79787793944517e+002°)
3.54813389233574e+002	(-1.26444125450888e+001dB,1.79782851055765e+002°)
3.63078054770100e+002	(-1.26444115982383e+001dB,1.79777793017942e+002°)
3.71535229097171e+002	(-1.26444106070821e+001dB,1.79772617172355e+002°)
3.80189396320559e+002	(-1.26444095689918e+001dB,1.79767320760001e+002°)
3.89045144994279e+002	(-1.26444084819451e+001dB,1.79761900980153e+002°)
3.98107170553495e+002	(-1.26444073437717e+001dB,1.79756354949837e+002°)
4.07380277804111e+002	(-1.26444061519388e+001dB,1.79750679755485e+002°)
4.16869383470333e+002	(-1.26444049039840e+001dB,1.79744872367970e+002°)
4.26579518801591e+002	(-1.26444035971659e+001dB,1.79738929702256e+002°)
4.36515832240164e+002	(-1.26444022287073e+001dB,1.79732848624727e+002°)
4.46683592150961e+002	(-1.26444007958164e+001dB,1.79726625888045e+002°)
4.57088189614873e+002	(-1.26443992954317e+001dB,1.79720258222599e+002°)
4.67735141287196e+002	(-1.26443977242640e+001dB,1.79713742228248e+002°)
4.78630092322636e+002	(-1.26443960790922e+001dB,1.79707074466396e+002°)
4.89778819368444e+002	(-1.26443943563254e+001dB,1.79700251381632e+002°)
5.01187233627270e+002	(-1.26443925524295e+001dB,1.79693269383414e+002°)
5.12861383991362e+002	(-1.26443906634703e+001dB,1.79686124746036e+002°)
5.24807460249770e+002	(-1.26443886855535e+001dB,1.79678813692107e+002°)
5.37031796370250e+002	(-1.26443866144588e+001dB,1.79671332358395e+002°)
5.49540873857622e+002	(-1.26443844456760e+001dB,1.79663676757144e+002°)
5.62341325190346e+002	(-1.26443821746789e+001dB,1.79655842831591e+002°)
5.75439937337154e+002	(-1.26443797966632e+001dB,1.79647826431985e+002°)
5.88843655355586e+002	(-1.26443773065514e+001dB,1.79639623322381e+002°)
6.02559586074355e+002	(-1.26443746991316e+001dB,1.79631229140148e+002°)
6.16595001861479e+002	(-1.26443719688571e+001dB,1.79622639435889e+002°)
6.30957344480190e+002	(-1.26443691098872e+001dB,1.79613849651947e+002°)
6.45654229034652e+002	(-1.26443661161653e+001dB,1.79604855138223e+002°)
6.60693448007592e+002	(-1.26443629813563e+001dB,1.79595651121449e+002°)
6.76082975391978e+002	(-1.26443596988109e+001dB,1.79586232715071e+002°)
6.91830970918933e+002	(-1.26443562615772e+001dB,1.79576594946742e+002°)
7.07945784384134e+002	(-1.26443526623808e+001dB,1.79566732681929e+002°)
7.24435960074986e+002	(-1.26443488935376e+001dB,1.79556640704653e+002°)
7.41310241300914e+002	(-1.26443449470565e+001dB,1.79546313657094e+002°)
7.58577575029180e+002	(-1.26443408146375e+001dB,1.79535746081709e+002°)
7.76247116628688e+002	(-1.26443364874456e+001dB,1.79524932357448e+002°)
7.94328234724277e+002	(-1.26443319563306e+001dB,1.79513866765008e+002°)
8.12830516164095e+002	(-1.26443272116577e+001dB,1.79502543426366e+002°)
8.31763771102666e+002	(-1.26443222434071e+001dB,1.79490956352109e+002°)
8.51138038202372e+002	(-1.26443170410271e+001dB,1.79479099389607e+002°)
8.70963589956076e+002	(-1.26443115934628e+001dB,1.79466966256299e+002°)
8.91250938133741e+002	(-1.26443058891776e+001dB,1.79454550517801e+002°)
9.12010839355905e+002	(-1.26442999160777e+001dB,1.79441845599501e+002°)
9.33254300796986e+002	(-1.26442936614851e+001dB,1.79428844760890e+002°)
9.54992586021431e+002	(-1.26442871121290e+001dB,1.79415541112617e+002°)
9.77237220955805e+002	(-1.26442802541467e+001dB,1.79401927598302e+002°)
9.99999999999994e+002	(-1.26442730729526e+001dB,1.79387997005158e+002°)
1.02329299228075e+003	(-1.26442655533605e+001dB,1.79373741948630e+002°)
1.04712854805089e+003	(-1.26442576793666e+001dB,1.79359154874877e+002°)
1.07151930523760e+003	(-1.26442494343446e+001dB,1.79344228049460e+002°)
1.09647819614318e+003	(-1.26442408007521e+001dB,1.79328953555812e+002°)
1.12201845430196e+003	(-1.26442317603188e+001dB,1.79313323303739e+002°)
1.14815362149688e+003	(-1.26442222938369e+001dB,1.79297329009232e+002°)
1.17489755493952e+003	(-1.26442123812574e+001dB,1.79280962192225e+002°)
1.20226443461741e+003	(-1.26442020015423e+001dB,1.79264214178230e+002°)
1.23026877081237e+003	(-1.26441911326944e+001dB,1.79247076089648e+002°)
1.25892541179416e+003	(-1.26441797516767e+001dB,1.79229538844538e+002°)
1.28824955169313e+003	(-1.26441678343080e+001dB,1.79211593148734e+002°)
1.31825673855640e+003	(-1.26441553553618e+001dB,1.79193229488894e+002°)
1.34896288259165e+003	(-1.26441422883540e+001dB,1.79174438135607e+002°)
1.38038426460288e+003	(-1.26441286055847e+001dB,1.79155209127934e+002°)
1.41253754462275e+003	(-1.26441142780458e+001dB,1.79135532276038e+002°)
1.44543977074592e+003	(-1.26440992753409e+001dB,1.79115397153326e+002°)
1.47910838816820e+003	(-1.26440835656703e+001dB,1.79094793084313e+002°)
1.51356124843620e+003	(-1.26440671157169e+001dB,1.79073709159075e+002°)
1.54881661891247e+003	(-1.26440498906190e+001dB,1.79052134202287e+002°)
1.58489319246110e+003	(-1.26440318538333e+001dB,1.79030056779879e+002°)
1.62181009735892e+003	(-1.26440129671364e+001dB,1.79007465195941e+002°)
1.65958690743755e+003	(-1.26439931904666e+001dB,1.78984347477479e+002°)
1.69824365246173e+003	(-1.26439724818977e+001dB,1.78960691377172e+002°)
1.73780082874936e+003	(-1.26439507975436e+001dB,1.78936484364205e+002°)
1.77827941003891e+003	(-1.26439280914105e+001dB,1.78911713608762e+002°)
1.81970085860997e+003	(-1.26439043153663e+001dB,1.78886365989628e+002°)
1.86208713666286e+003	(-1.26438794190173e+001dB,1.78860428082721e+002°)
1.90546071796323e+003	(-1.26438533495771e+001dB,1.78833886141193e+002°)
1.94984459975803e+003	(-1.26438260517911e+001dB,1.78806726110414e+002°)
1.99526231496887e+003	(-1.26437974677874e+001dB,1.78778933601563e+002°)
2.04173794466952e+003	(-1.26437675369746e+001dB,1.78750493893975e+002°)
2.08929613085403e+003	(-1.26437361959139e+001dB,1.78721391926225e+002°)
2.13796208950222e+003	(-1.26437033781750e+001dB,1.78691612284511e+002°)
2.18776162394954e+003	(-1.26436690142017e+001dB,1.78661139196186e+002°)
2.23872113856832e+003	(-1.26436330311609e+001dB,1.78629956526866e+002°)
2.29086765276776e+003	(-1.26435953528034e+001dB,1.78598047765069e+002°)
2.34422881531991e+003	(-1.26435558992580e+001dB,1.78565396011712e+002°)
2.39883291901947e+003	(-1.26435145869305e+001dB,1.78531983980132e+002°)
2.45470891568501e+003	(-1.26434713282751e+001dB,1.78497793983428e+002°)
2.51188643150956e+003	(-1.26434260316321e+001dB,1.78462807919189e+002°)
2.57039578276885e+003	(-1.26433786010138e+001dB,1.78427007269687e+002°)
2.63026799189536e+003	(-1.26433289359362e+001dB,1.78390373084167e+002°)
2.69153480392690e+003	(-1.26432769311726e+001dB,1.78352885973662e+002°)
2.75422870333815e+003	(-1.26432224765426e+001dB,1.78314526099478e+002°)
2.81838293126443e+003	(-1.26431654566973e+001dB,1.78275273161160e+002°)
2.88403150312659e+003	(-1.26431057508487e+001dB,1.78235106389751e+002°)
2.95120922666636e+003	(-1.26430432325351e+001dB,1.78194004536957e+002°)
3.01995172040199e+003	(-1.26429777693482e+001dB,1.78151945856646e+002°)
3.09029543251357e+003	(-1.26429092226306e+001dB,1.78108908100470e+002°)
3.16227766016836e+003	(-1.26428374472208e+001dB,1.78064868504486e+002°)
3.23593656929626e+003	(-1.26427622911340e+001dB,1.78019803779899e+002°)
3.31131121482589e+003	(-1.26426835952578e+001dB,1.77973690102255e+002°)
3.38844156139200e+003	(-1.26426011929543e+001dB,1.77926503084283e+002°)
3.46736850452529e+003	(-1.26425149097777e+001dB,1.77878217781796e+002°)
3.54813389233573e+003	(-1.26424245630892e+001dB,1.77828808676277e+002°)
3.63078054770099e+003	(-1.26423299616596e+001dB,1.77778249653084e+002°)
3.71535229097170e+003	(-1.26422309052701e+001dB,1.77726513996486e+002°)
3.80189396320558e+003	(-1.26421271843038e+001dB,1.77673574374086e+002°)
3.89045144994278e+003	(-1.26420185792927e+001dB,1.77619402821009e+002°)
3.98107170553494e+003	(-1.26419048604533e+001dB,1.77563970726874e+002°)
4.07380277804110e+003	(-1.26417857872316e+001dB,1.77507248821763e+002°)
4.16869383470332e+003	(-1.26416611077518e+001dB,1.77449207157771e+002°)
4.26579518801589e+003	(-1.26415305583487e+001dB,1.77389815102947e+002°)
4.36515832240162e+003	(-1.26413938629397e+001dB,1.77329041309138e+002°)
4.46683592150960e+003	(-1.26412507325229e+001dB,1.77266853715789e+002°)
4.57088189614871e+003	(-1.26411008645248e+001dB,1.77203219518635e+002°)
4.67735141287194e+003	(-1.26409439421794e+001dB,1.77138105160661e+002°)
4.78630092322634e+003	(-1.26407796338588e+001dB,1.77071476312264e+002°)
4.89778819368442e+003	(-1.26406075923957e+001dB,1.77003297853436e+002°)
5.01187233627268e+003	(-1.26404274543471e+001dB,1.76933533860067e+002°)
5.12861383991361e+003	(-1.26402388392394e+001dB,1.76862147581093e+002°)
5.24807460249768e+003	(-1.26400413487786e+001dB,1.76789101424829e+002°)
5.37031796370248e+003	(-1.26398345659964e+001dB,1.76714356934781e+002°)
5.49540873857620e+003	(-1.26396180544362e+001dB,1.76637874776366e+002°)
5.62341325190344e+003	(-1.26393913571820e+001dB,1.76559614713493e+002°)
