Freq.	V(n004)/V(n002)
1.00000000000000e+001	(-9.21502172958609e+001dB,2.65635486958759e+001°)
1.02329299228075e+001	(-9.21095098307394e+001dB,2.70941416951912e+001°)
1.04712854805090e+001	(-9.20672165501643e+001dB,2.76328603061883e+001°)
1.07151930523761e+001	(-9.20232613938494e+001dB,2.81777787633176e+001°)
1.09647819614319e+001	(-9.19780733957055e+001dB,2.87318077425578e+001°)
1.12201845430196e+001	(-9.19309658017538e+001dB,2.92907154298415e+001°)
1.14815362149688e+001	(-9.18821678790627e+001dB,2.98565454190084e+001°)
1.17489755493953e+001	(-9.18315166933339e+001dB,3.04285155014883e+001°)
1.20226443461741e+001	(-9.17794021534173e+001dB,3.10086594579690e+001°)
1.23026877081238e+001	(-9.17256302422570e+001dB,3.15945193391173e+001°)
1.25892541179417e+001	(-9.16696521643524e+001dB,3.21866156257160e+001°)
1.28824955169313e+001	(-9.16120654127427e+001dB,3.27837378301928e+001°)
1.31825673855641e+001	(-9.15524161473336e+001dB,3.33863357892796e+001°)
1.34896288259165e+001	(-9.14908472567318e+001dB,3.39959613693116e+001°)
1.38038426460288e+001	(-9.14273682804408e+001dB,3.46092960955810e+001°)
1.41253754462275e+001	(-9.13617371351478e+001dB,3.52281540293513e+001°)
1.44543977074593e+001	(-9.12942093729432e+001dB,3.58528909105063e+001°)
1.47910838816821e+001	(-9.12246158126555e+001dB,3.64820121176493e+001°)
1.51356124843621e+001	(-9.11527358395857e+001dB,3.71138037025916e+001°)
1.54881661891248e+001	(-9.10788863311120e+001dB,3.77504887593744e+001°)
1.58489319246111e+001	(-9.10029204788515e+001dB,3.83927207963149e+001°)
1.62181009735893e+001	(-9.09245679504031e+001dB,3.90355276261490e+001°)
1.65958690743756e+001	(-9.08440211417246e+001dB,3.96820606845414e+001°)
1.69824365246174e+001	(-9.07614088800449e+001dB,4.03314980215330e+001°)
1.73780082874937e+001	(-9.06764685854735e+001dB,4.09833264662346e+001°)
1.77827941003892e+001	(-9.05892956861320e+001dB,4.16370575848028e+001°)
1.81970085860998e+001	(-9.04997914550881e+001dB,4.22929876028450e+001°)
1.86208713666287e+001	(-9.04080486146995e+001dB,4.29500110424013e+001°)
1.90546071796325e+001	(-9.03140670310973e+001dB,4.36089847379412e+001°)
1.94984459975804e+001	(-9.02177784764136e+001dB,4.42681056550907e+001°)
1.99526231496888e+001	(-9.01192527227560e+001dB,4.49274632530851e+001°)
2.04173794466953e+001	(-9.00182791878636e+001dB,4.55866236159090e+001°)
2.08929613085404e+001	(-8.99150851975814e+001dB,4.62452345972070e+001°)
2.13796208950223e+001	(-8.98095873941889e+001dB,4.69048781154541e+001°)
2.18776162394955e+001	(-8.97018027119920e+001dB,4.75620578989281e+001°)
2.23872113856834e+001	(-8.95916933298038e+001dB,4.82186420979393e+001°)
2.29086765276777e+001	(-8.94793813049260e+001dB,4.88728228121023e+001°)
2.34422881531992e+001	(-8.93647257167921e+001dB,4.95254276958854e+001°)
2.39883291901949e+001	(-8.92478274288331e+001dB,5.01751305015513e+001°)
2.45470891568503e+001	(-8.91287589223983e+001dB,5.08232680211883e+001°)
2.51188643150958e+001	(-8.90075244519487e+001dB,5.14667063994479e+001°)
2.57039578276886e+001	(-8.88840389708608e+001dB,5.21076315196893e+001°)
2.63026799189538e+001	(-8.87583003931758e+001dB,5.27458147401911e+001°)
2.69153480392691e+001	(-8.86304717829618e+001dB,5.33791307629585e+001°)
2.75422870333816e+001	(-8.85006908312918e+001dB,5.40078998418233e+001°)
2.81838293126445e+001	(-8.83686767073624e+001dB,5.46326926323364e+001°)
2.88403150312660e+001	(-8.82346117715146e+001dB,5.52531298683503e+001°)
2.95120922666638e+001	(-8.80985568157778e+001dB,5.58680029235911e+001°)
3.01995172040201e+001	(-8.79604926902630e+001dB,5.64779228129527e+001°)
3.09029543251359e+001	(-8.78204850840523e+001dB,5.70830793030176e+001°)
3.16227766016838e+001	(-8.76785675708739e+001dB,5.76815348087480e+001°)
3.23593656929628e+001	(-8.75348215106246e+001dB,5.82738797790280e+001°)
3.31131121482591e+001	(-8.73892170240309e+001dB,5.88603814457654e+001°)
3.38844156139202e+001	(-8.72417992622809e+001dB,5.94411630507521e+001°)
3.46736850452531e+001	(-8.70925492150804e+001dB,6.00153020484782e+001°)
3.54813389233575e+001	(-8.69415989227464e+001dB,6.05829750062660e+001°)
3.63078054770101e+001	(-8.67889460347161e+001dB,6.11440185127837e+001°)
3.71535229097172e+001	(-8.66347177554450e+001dB,6.16977441812162e+001°)
3.80189396320561e+001	(-8.64788563639360e+001dB,6.22447890944920e+001°)
3.89045144994280e+001	(-8.63215286029664e+001dB,6.27844429425510e+001°)
3.98107170553497e+001	(-8.61625449546285e+001dB,6.33170934694594e+001°)
4.07380277804112e+001	(-8.60021213818150e+001dB,6.38427242961165e+001°)
4.16869383470335e+001	(-8.58402234293221e+001dB,6.43604877967160e+001°)
4.26579518801592e+001	(-8.56769277775845e+001dB,6.48713467144350e+001°)
4.36515832240165e+001	(-8.55123274149524e+001dB,6.53742399443709e+001°)
4.46683592150962e+001	(-8.53463490613164e+001dB,6.58702155361579e+001°)
4.57088189614874e+001	(-8.51791647267309e+001dB,6.63580397408203e+001°)
4.67735141287197e+001	(-8.50106806360870e+001dB,6.68385422041071e+001°)
4.78630092322638e+001	(-8.48409880893311e+001dB,6.73115424833851e+001°)
4.89778819368445e+001	(-8.46701357873050e+001dB,6.77769358243834e+001°)
5.01187233627271e+001	(-8.44981267305888e+001dB,6.82345764222637e+001°)
5.12861383991364e+001	(-8.43250726673465e+001dB,6.86847482748551e+001°)
5.24807460249772e+001	(-8.41509756810161e+001dB,6.91272614567822e+001°)
5.37031796370252e+001	(-8.39758351628396e+001dB,6.95622583244219e+001°)
5.49540873857624e+001	(-8.37997151308162e+001dB,6.99896665566414e+001°)
5.62341325190348e+001	(-8.36226393502405e+001dB,7.04097578970101e+001°)
5.75439937337156e+001	(-8.34446122425052e+001dB,7.08222929251105e+001°)
5.88843655355588e+001	(-8.32657454401991e+001dB,7.12274718952486e+001°)
6.02559586074357e+001	(-8.30860048633082e+001dB,7.16252898262843e+001°)
6.16595001861481e+001	(-8.29054687890590e+001dB,7.20157485010555e+001°)
6.30957344480192e+001	(-8.27240996802663e+001dB,7.23990995978074e+001°)
6.45654229034654e+001	(-8.25419778113875e+001dB,7.27752478849864e+001°)
6.60693448007595e+001	(-8.23591462653829e+001dB,7.31442109735895e+001°)
6.76082975391980e+001	(-8.21755711839106e+001dB,7.35063377808089e+001°)
6.91830970918935e+001	(-8.19913408766915e+001dB,7.38613583750099e+001°)
7.07945784384136e+001	(-8.18064528524623e+001dB,7.42096417441224e+001°)
7.24435960074988e+001	(-8.16209028364811e+001dB,7.45511483709754e+001°)
7.41310241300916e+001	(-8.14347701047238e+001dB,7.48859003179647e+001°)
7.58577575029182e+001	(-8.12480757798150e+001dB,7.52139297793856e+001°)
7.76247116628690e+001	(-8.10607892123684e+001dB,7.55355903483036e+001°)
7.94328234724279e+001	(-8.08729632257485e+001dB,7.58508318630789e+001°)
8.12830516164097e+001	(-8.06846520457621e+001dB,7.61596231564447e+001°)
8.31763771102669e+001	(-8.04958034741462e+001dB,7.64622635335284e+001°)
8.51138038202374e+001	(-8.03065226094187e+001dB,7.67586508451809e+001°)
8.70963589956078e+001	(-8.01167512739509e+001dB,7.70490320261374e+001°)
8.91250938133743e+001	(-7.99265612721291e+001dB,7.73334058818640e+001°)
9.12010839355907e+001	(-7.97359475653785e+001dB,7.76119468076214e+001°)
9.33254300796988e+001	(-7.95449028526115e+001dB,7.78846979963827e+001°)
9.54992586021433e+001	(-7.93534893031072e+001dB,7.81517724165336e+001°)
9.77237220955808e+001	(-7.91617330196558e+001dB,7.84131706690173e+001°)
9.99999999999997e+001	(-7.89695933955241e+001dB,7.86691363598406e+001°)
1.02329299228075e+002	(-7.87771181863012e+001dB,7.89196981415371e+001°)
1.04712854805090e+002	(-7.85843127522016e+001dB,7.91649356723303e+001°)
1.07151930523760e+002	(-7.83912102542057e+001dB,7.94049562724916e+001°)
1.09647819614318e+002	(-7.81977818709380e+001dB,7.96398788574161e+001°)
1.12201845430196e+002	(-7.80040842346772e+001dB,7.98697442942128e+001°)
1.14815362149688e+002	(-7.78101134644296e+001dB,8.00946790665684e+001°)
1.17489755493953e+002	(-7.76158727786687e+001dB,8.03147720067029e+001°)
1.20226443461741e+002	(-7.74213759322917e+001dB,8.05301143691419e+001°)
1.23026877081238e+002	(-7.72266385176209e+001dB,8.07408117130097e+001°)
1.25892541179416e+002	(-7.70316818815238e+001dB,8.09468843362693e+001°)
1.28824955169313e+002	(-7.68364956048330e+001dB,8.11484955174390e+001°)
1.31825673855640e+002	(-7.66410958495788e+001dB,8.13457035569864e+001°)
1.34896288259165e+002	(-7.64454981785552e+001dB,8.15385872861745e+001°)
1.38038426460288e+002	(-7.62497100709549e+001dB,8.17272241615271e+001°)
1.41253754462275e+002	(-7.60537259168076e+001dB,8.19117367521746e+001°)
1.44543977074592e+002	(-7.58575689063605e+001dB,8.20921803474762e+001°)
1.47910838816820e+002	(-7.56612437531217e+001dB,8.22686323374109e+001°)
1.51356124843620e+002	(-7.54647527026279e+001dB,8.24411806102408e+001°)
1.54881661891248e+002	(-7.52681092674804e+001dB,8.26099009669214e+001°)
1.58489319246111e+002	(-7.50713197174682e+001dB,8.27748690935499e+001°)
1.62181009735892e+002	(-7.48743821639894e+001dB,8.29361725373549e+001°)
1.65958690743755e+002	(-7.46773079128480e+001dB,8.30938788917732e+001°)
1.69824365246174e+002	(-7.44801092254991e+001dB,8.32480527978661e+001°)
1.73780082874937e+002	(-7.42827811454904e+001dB,8.33987859127384e+001°)
1.77827941003892e+002	(-7.40853431651571e+001dB,8.35461264649198e+001°)
1.81970085860998e+002	(-7.38877845987559e+001dB,8.36901682247214e+001°)
1.86208713666286e+002	(-7.36901176831868e+001dB,8.38309679761959e+001°)
1.90546071796324e+002	(-7.34923517535127e+001dB,8.39685905909555e+001°)
1.94984459975804e+002	(-7.32944815132982e+001dB,8.41031084390009e+001°)
1.99526231496887e+002	(-7.30965159933186e+001dB,8.42345913445960e+001°)
2.04173794466952e+002	(-7.28984565780891e+001dB,8.43630974752109e+001°)
2.08929613085403e+002	(-7.27003156798980e+001dB,8.44886856225765e+001°)
2.13796208950222e+002	(-7.25020941236231e+001dB,8.46114212332586e+001°)
2.18776162394954e+002	(-7.23037878607247e+001dB,8.47313655919783e+001°)
2.23872113856833e+002	(-7.21054090226621e+001dB,8.48485797369410e+001°)
2.29086765276776e+002	(-7.19069600235586e+001dB,8.49631147614608e+001°)
2.34422881531991e+002	(-7.17084372896936e+001dB,8.50750386272872e+001°)
2.39883291901948e+002	(-7.15098513968189e+001dB,8.51843957263714e+001°)
2.45470891568502e+002	(-7.13111981639814e+001dB,8.52912501309926e+001°)
2.51188643150957e+002	(-7.11124878017208e+001dB,8.53956495717886e+001°)
2.57039578276885e+002	(-7.09137186874627e+001dB,8.54976485061106e+001°)
2.63026799189537e+002	(-7.07148958399592e+001dB,8.55972955027285e+001°)
2.69153480392690e+002	(-7.05160214673189e+001dB,8.56946445832587e+001°)
2.75422870333816e+002	(-7.03170954143494e+001dB,8.57897432310113e+001°)
2.81838293126444e+002	(-7.01181213395585e+001dB,8.58826415283673e+001°)
2.88403150312659e+002	(-6.99190994897066e+001dB,8.59733861222040e+001°)
2.95120922666637e+002	(-6.97200364010050e+001dB,8.60620211038895e+001°)
3.01995172040200e+002	(-6.95209296487378e+001dB,8.61485939776824e+001°)
3.09029543251358e+002	(-6.93217841500265e+001dB,8.62331481440312e+001°)
3.16227766016837e+002	(-6.91226002270422e+001dB,8.63157249043380e+001°)
3.23593656929627e+002	(-6.89233784919682e+001dB,8.63963716828653e+001°)
3.31131121482590e+002	(-6.87241208284772e+001dB,8.64751263578199e+001°)
3.38844156139201e+002	(-6.85248317975480e+001dB,8.65520285196118e+001°)
3.46736850452530e+002	(-6.83255107030952e+001dB,8.66271195696264e+001°)
3.54813389233574e+002	(-6.81261607230900e+001dB,8.67004365095913e+001°)
3.63078054770100e+002	(-6.79267787774213e+001dB,8.67720203404573e+001°)
3.71535229097171e+002	(-6.77273712509797e+001dB,8.68419049123335e+001°)
3.80189396320559e+002	(-6.75279366127211e+001dB,8.69101278063222e+001°)
3.89045144994279e+002	(-6.73284757663847e+001dB,8.69767243798472e+001°)
3.98107170553495e+002	(-6.71289912610822e+001dB,8.70417288555403e+001°)
4.07380277804111e+002	(-6.69294838310717e+001dB,8.71051749032958e+001°)
4.16869383470333e+002	(-6.67299542047377e+001dB,8.71670954517127e+001°)
4.26579518801591e+002	(-6.65304033659232e+001dB,8.72275236671547e+001°)
4.36515832240164e+002	(-6.63308317118327e+001dB,8.72864894763387e+001°)
4.46683592150961e+002	(-6.61312423738934e+001dB,8.73440245033029e+001°)
4.57088189614873e+002	(-6.59316332598493e+001dB,8.74001586554870e+001°)
4.67735141287196e+002	(-6.57320071488464e+001dB,8.74549212087179e+001°)
4.78630092322636e+002	(-6.55323645414782e+001dB,8.75083401693197e+001°)
4.89778819368444e+002	(-6.53327049869387e+001dB,8.75604443920133e+001°)
5.01187233627270e+002	(-6.51330315461772e+001dB,8.76112602500504e+001°)
5.12861383991362e+002	(-6.49333426912249e+001dB,8.76608148713234e+001°)
5.24807460249770e+002	(-6.47336393022442e+001dB,8.77091344574033e+001°)
5.37031796370250e+002	(-6.45339236580419e+001dB,8.77562433355411e+001°)
5.49540873857622e+002	(-6.43341942842680e+001dB,8.78021669479544e+001°)
5.62341325190346e+002	(-6.41344539740851e+001dB,8.78469289333767e+001°)
5.75439937337154e+002	(-6.39347008259175e+001dB,8.78905531439975e+001°)
5.88843655355586e+002	(-6.37349382861767e+001dB,8.79330617761404e+001°)
6.02559586074355e+002	(-6.35351632756650e+001dB,8.79744784746400e+001°)
6.16595001861479e+002	(-6.33353790535254e+001dB,8.80148237592585e+001°)
6.30957344480190e+002	(-6.31355854084854e+001dB,8.80541191113903e+001°)
6.45654229034652e+002	(-6.29357821364129e+001dB,8.80923854989816e+001°)
6.60693448007592e+002	(-6.27359702004095e+001dB,8.81296428915771e+001°)
6.76082975391978e+002	(-6.25361499139609e+001dB,8.81659107771324e+001°)
6.91830970918933e+002	(-6.23363213693706e+001dB,8.82012083069294e+001°)
7.07945784384134e+002	(-6.21364853514136e+001dB,8.82355540433620e+001°)
7.24435960074986e+002	(-6.19366419569574e+001dB,8.82689660786384e+001°)
7.41310241300914e+002	(-6.17367917978621e+001dB,8.83014619999993e+001°)
7.58577575029180e+002	(-6.15369346750350e+001dB,8.83330589220506e+001°)
7.76247116628688e+002	(-6.13370714417810e+001dB,8.83637734935796e+001°)
7.94328234724277e+002	(-6.11372020881466e+001dB,8.83936218754408e+001°)
8.12830516164095e+002	(-6.09373271616223e+001dB,8.84226198090727e+001°)
8.31763771102666e+002	(-6.07374460987410e+001dB,8.84507827342192e+001°)
8.51138038202372e+002	(-6.05375604283492e+001dB,8.84781252029726e+001°)
8.70963589956076e+002	(-6.03376695440076e+001dB,8.85046618556794e+001°)
8.91250938133741e+002	(-6.01377736050318e+001dB,8.85304067144914e+001°)
9.12010839355905e+002	(-5.99378732900056e+001dB,8.85553732228718e+001°)
9.33254300796986e+002	(-5.97379685491626e+001dB,8.85795746649540e+001°)
9.54992586021431e+002	(-5.95380596738676e+001dB,8.86030237331881e+001°)
9.77237220955805e+002	(-5.93381467859991e+001dB,8.86257328609130e+001°)
9.99999999999994e+002	(-5.91382301634160e+001dB,8.86477140849050e+001°)
1.02329299228075e+003	(-5.89383099638128e+001dB,8.86689788788070e+001°)
1.04712854805089e+003	(-5.87383862418522e+001dB,8.86895386171050e+001°)
1.07151930523760e+003	(-5.85384591585007e+001dB,8.87094040755675e+001°)
1.09647819614318e+003	(-5.83385290510548e+001dB,8.87285857788655e+001°)
1.12201845430196e+003	(-5.81385960308362e+001dB,8.87470938456602e+001°)
1.14815362149688e+003	(-5.79386601098894e+001dB,8.87649380611353e+001°)
1.17489755493952e+003	(-5.77387214425040e+001dB,8.87821278804024e+001°)
1.20226443461741e+003	(-5.75387802432863e+001dB,8.87986723606553e+001°)
1.23026877081237e+003	(-5.73388367036422e+001dB,8.88145802408642e+001°)
1.25892541179416e+003	(-5.71388907959207e+001dB,8.88298599542818e+001°)
1.28824955169313e+003	(-5.69389425695025e+001dB,8.88445195817149e+001°)
1.31825673855640e+003	(-5.67389922690473e+001dB,8.88585668756232e+001°)
1.34896288259165e+003	(-5.65390399679636e+001dB,8.88720092395808e+001°)
1.38038426460288e+003	(-5.63390858864972e+001dB,8.88848537908490e+001°)
1.41253754462275e+003	(-5.61391299034773e+001dB,8.88971073302395e+001°)
1.44543977074592e+003	(-5.59391722430566e+001dB,8.89087763412078e+001°)
1.47910838816820e+003	(-5.57392129433850e+001dB,8.89198669908074e+001°)
1.51356124843620e+003	(-5.55392521217521e+001dB,8.89303851421041e+001°)
1.54881661891247e+003	(-5.53392899041399e+001dB,8.89403363635208e+001°)
1.58489319246110e+003	(-5.51393263868941e+001dB,8.89497259038258e+001°)
1.62181009735892e+003	(-5.49393614021195e+001dB,8.89585587632988e+001°)
1.65958690743755e+003	(-5.47393952796789e+001dB,8.89668395990810e+001°)
1.69824365246173e+003	(-5.45394280471177e+001dB,8.89745727700018e+001°)
1.73780082874936e+003	(-5.43394597362205e+001dB,8.89817623962340e+001°)
1.77827941003891e+003	(-5.41394904175978e+001dB,8.89884122725572e+001°)
1.81970085860997e+003	(-5.39395201111922e+001dB,8.89945259196748e+001°)
1.86208713666286e+003	(-5.37395489967067e+001dB,8.90001065641094e+001°)
1.90546071796323e+003	(-5.35395769969786e+001dB,8.90051571623738e+001°)
1.94984459975803e+003	(-5.33396043365775e+001dB,8.90096803822850e+001°)
1.99526231496887e+003	(-5.31396308794983e+001dB,8.90136786367582e+001°)
2.04173794466952e+003	(-5.29396568157921e+001dB,8.90171540175680e+001°)
2.08929613085403e+003	(-5.27396821885816e+001dB,8.90201083714818e+001°)
2.13796208950222e+003	(-5.25397070460911e+001dB,8.90225432483352e+001°)
2.18776162394954e+003	(-5.23397313705367e+001dB,8.90244599641569e+001°)
2.23872113856832e+003	(-5.21397552790099e+001dB,8.90258595065011e+001°)
2.29086765276776e+003	(-5.19397788196882e+001dB,8.90267426253763e+001°)
2.34422881531991e+003	(-5.17398020329406e+001dB,8.90271097887516e+001°)
2.39883291901947e+003	(-5.15398249693062e+001dB,8.90269611778394e+001°)
2.45470891568501e+003	(-5.13398476703167e+001dB,8.90262967195219e+001°)
2.51188643150956e+003	(-5.11398702009107e+001dB,8.90251160621691e+001°)
2.57039578276885e+003	(-5.09398925893719e+001dB,8.90234185760169e+001°)
2.63026799189536e+003	(-5.07399148801242e+001dB,8.90212033594665e+001°)
2.69153480392690e+003	(-5.05399371260137e+001dB,8.90184692406423e+001°)
2.75422870333815e+003	(-5.03399593796016e+001dB,8.90152147648636e+001°)
2.81838293126443e+003	(-5.01399817429962e+001dB,8.90114382070160e+001°)
2.88403150312659e+003	(-4.99400041516947e+001dB,8.90071375699719e+001°)
2.95120922666636e+003	(-4.97400267200507e+001dB,8.90023105701142e+001°)
3.01995172040199e+003	(-4.95400494966976e+001dB,8.89969546505877e+001°)
3.09029543251357e+003	(-4.93400725022235e+001dB,8.89910669735405e+001°)
3.16227766016836e+003	(-4.91400958253012e+001dB,8.89846444197817e+001°)
3.23593656929626e+003	(-4.89401194865842e+001dB,8.89776835820603e+001°)
3.31131121482589e+003	(-4.87401435281135e+001dB,8.89701807760294e+001°)
3.38844156139200e+003	(-4.85401680418615e+001dB,8.89621320227665e+001°)
3.46736850452529e+003	(-4.83401930290872e+001dB,8.89535330648427e+001°)
3.54813389233573e+003	(-4.81402185736469e+001dB,8.89443793365867e+001°)
3.63078054770099e+003	(-4.79402447186736e+001dB,8.89346659964269e+001°)
3.71535229097170e+003	(-4.77402715429674e+001dB,8.89243878951052e+001°)
3.80189396320558e+003	(-4.75402990646048e+001dB,8.89135395893136e+001°)
3.89045144994278e+003	(-4.73403273681194e+001dB,8.89021153314674e+001°)
3.98107170553494e+003	(-4.71403565062144e+001dB,8.88901090701257e+001°)
4.07380277804110e+003	(-4.69403865430485e+001dB,8.88775144468304e+001°)
4.16869383470332e+003	(-4.67404175429685e+001dB,8.88643247895677e+001°)
4.26579518801589e+003	(-4.65404495552842e+001dB,8.88505331134711e+001°)
4.36515832240162e+003	(-4.63404826787634e+001dB,8.88361321123236e+001°)
4.46683592150960e+003	(-4.61405169615612e+001dB,8.88211141608839e+001°)
4.57088189614871e+003	(-4.59405524797797e+001dB,8.88054713050147e+001°)
4.67735141287194e+003	(-4.57405893100742e+001dB,8.87891952613398e+001°)
4.78630092322634e+003	(-4.55406275317812e+001dB,8.87722774111135e+001°)
4.89778819368442e+003	(-4.53406672310698e+001dB,8.87547087965355e+001°)
5.01187233627268e+003	(-4.51407084786129e+001dB,8.87364801142943e+001°)
5.12861383991361e+003	(-4.49407513773429e+001dB,8.87175817129704e+001°)
5.24807460249768e+003	(-4.47407960000020e+001dB,8.86980035884886e+001°)
5.37031796370248e+003	(-4.45408424596609e+001dB,8.86777353749610e+001°)
5.49540873857620e+003	(-4.43408908470376e+001dB,8.86567663425483e+001°)
5.62341325190344e+003	(-4.41409412598338e+001dB,8.86350853930152e+001°)
5.75439937337152e+003	(-4.39409938090386e+001dB,8.86126810498921e+001°)
