Freq.	V(vout)
Step Information: Run=1  (Run: 1/18)
1.00000000000000e+001	(1.38311804509443e+001dB,5.25159283313528e+001°)
1.02329299228075e+001	(1.39944823850132e+001dB,5.26090146046617e+001°)
1.04712854805090e+001	(1.41584009383795e+001dB,5.26868301428362e+001°)
1.07151930523761e+001	(1.43228819266527e+001dB,5.27492600394065e+001°)
1.09647819614319e+001	(1.44878711768234e+001dB,5.27961954356133e+001°)
1.12201845430196e+001	(1.46533145307304e+001dB,5.28275332717024e+001°)
1.14815362149688e+001	(1.48191578450636e+001dB,5.28431760539640e+001°)
1.17489755493953e+001	(1.49853469881902e+001dB,5.28430316390992e+001°)
1.20226443461741e+001	(1.51518278341081e+001dB,5.28270130373232e+001°)
1.23026877081238e+001	(1.53185462538337e+001dB,5.27950382354492e+001°)
1.25892541179417e+001	(1.54854481045422e+001dB,5.27470300410276e+001°)
1.28824955169313e+001	(1.56524792167844e+001dB,5.26829159484545e+001°)
1.31825673855641e+001	(1.58195853801060e+001dB,5.26026280278010e+001°)
1.34896288259165e+001	(1.59867123274040e+001dB,5.25061028369573e+001°)
1.38038426460288e+001	(1.61538057183512e+001dB,5.23932813575270e+001°)
1.41253754462275e+001	(1.63208111222280e+001dB,5.22641089547561e+001°)
1.44543977074593e+001	(1.64876740004951e+001dB,5.21185353616222e+001°)
1.47910838816821e+001	(1.66543396894466e+001dB,5.19565146870608e+001°)
1.51356124843621e+001	(1.68207533832770e+001dB,5.17780054481483e+001°)
1.54881661891248e+001	(1.69868601178968e+001dB,5.15829706259113e+001°)
1.58489319246111e+001	(1.71526047558283e+001dB,5.13713777442718e+001°)
1.62181009735893e+001	(1.73179319725072e+001dB,5.11431989714876e+001°)
1.65958690743756e+001	(1.74827862443150e+001dB,5.08984112432824e+001°)
1.69824365246174e+001	(1.76471118386558e+001dB,5.06369964067038e+001°)
1.73780082874937e+001	(1.78108528063885e+001dB,5.03589413835828e+001°)
1.77827941003892e+001	(1.79739529769144e+001dB,5.00642383523030e+001°)
1.81970085860998e+001	(1.81363559562081e+001dB,4.97528849464207e+001°)
1.86208713666287e+001	(1.82980051280715e+001dB,4.94248844685079e+001°)
1.90546071796325e+001	(1.84588436588710e+001dB,4.90802461174215e+001°)
1.94984459975804e+001	(1.86188145060063e+001dB,4.87189852270289e+001°)
1.99526231496888e+001	(1.87778604303361e+001dB,4.83411235142553e+001°)
2.04173794466953e+001	(1.89359240127676e+001dB,4.79466893341472e+001°)
2.08929613085404e+001	(1.90929476751899e+001dB,4.75357179394880e+001°)
2.13796208950223e+001	(1.92488737059061e+001dB,4.71082517423409e+001°)
2.18776162394955e+001	(1.94036442896865e+001dB,4.66643405747502e+001°)
2.23872113856834e+001	(1.95572015425356e+001dB,4.62040419456907e+001°)
2.29086765276777e+001	(1.97094875512239e+001dB,4.57274212912337e+001°)
2.34422881531992e+001	(1.98604444176026e+001dB,4.52345522147865e+001°)
2.39883291901949e+001	(2.00100143076707e+001dB,4.47255167141764e+001°)
2.45470891568503e+001	(2.01581395053231e+001dB,4.42004053922823e+001°)
2.51188643150958e+001	(2.03047624706592e+001dB,4.36593176478743e+001°)
2.57039578276886e+001	(2.04498259026790e+001dB,4.31023618433113e+001°)
2.63026799189538e+001	(2.05932728061467e+001dB,4.25296554457655e+001°)
2.69153480392691e+001	(2.07350465623417e+001dB,4.19413251386951e+001°)
2.75422870333816e+001	(2.08750910033686e+001dB,4.13375069003788e+001°)
2.81838293126445e+001	(2.10133504896373e+001dB,4.07183460464578e+001°)
2.88403150312660e+001	(2.11497699900731e+001dB,4.00839972336016e+001°)
2.95120922666638e+001	(2.12842951645627e+001dB,3.94346244216303e+001°)
3.01995172040201e+001	(2.14168724480873e+001dB,3.87704007916858e+001°)
3.09029543251359e+001	(2.15474491359498e+001dB,3.80915086183473e+001°)
3.16227766016838e+001	(2.16759734694523e+001dB,3.73981390939314e+001°)
3.23593656929628e+001	(2.18023947213446e+001dB,3.66904921036061e+001°)
3.31131121482591e+001	(2.19266632803238e+001dB,3.59687759503740e+001°)
3.38844156139202e+001	(2.20487307338405e+001dB,3.52332070294409e+001°)
3.46736850452531e+001	(2.21685499484418e+001dB,3.44840094519811e+001°)
3.54813389233575e+001	(2.22860751468690e+001dB,3.37214146188305e+001°)
3.63078054770101e+001	(2.24012619811214e+001dB,3.29456607451751e+001°)
3.71535229097172e+001	(2.25140676007031e+001dB,3.21569923378612e+001°)
3.80189396320561e+001	(2.26244507152798e+001dB,3.13556596275074e+001°)
3.89045144994280e+001	(2.27323716509983e+001dB,3.05419179581599e+001°)
3.98107170553497e+001	(2.28377923997532e+001dB,2.97160271377782e+001°)
4.07380277804112e+001	(2.29406766607282e+001dB,2.88782507533676e+001°)
4.16869383470335e+001	(2.30409898735918e+001dB,2.80288554550753e+001°)
4.26579518801592e+001	(2.31386992427878e+001dB,2.71681102140360e+001°)
4.36515832240165e+001	(2.32337737524333e+001dB,2.62962855591709e+001°)
4.46683592150962e+001	(2.33261841714107e+001dB,2.54136527985232e+001°)
4.57088189614874e+001	(2.34159030483282e+001dB,2.45204832310201e+001°)
4.67735141287197e+001	(2.35029046961105e+001dB,2.36170473548116e+001°)
4.78630092322638e+001	(2.35871651660773e+001dB,2.27036140785139e+001°)
4.89778819368445e+001	(2.36686622114622e+001dB,2.17804499418062e+001°)
5.01187233627271e+001	(2.37473752404263e+001dB,2.08478183518657e+001°)
5.12861383991364e+001	(2.38232852587167e+001dB,1.99059788420972e+001°)
5.24807460249772e+001	(2.38963748022206e+001dB,1.89551863595080e+001°)
5.37031796370252e+001	(2.39666278597573e+001dB,1.79956905869030e+001°)
5.49540873857624e+001	(2.40340297865470e+001dB,1.70277353058334e+001°)
5.62341325190348e+001	(2.40985672088752e+001dB,1.60515578059261e+001°)
5.75439937337156e+001	(2.41602279205560e+001dB,1.50673883458561e+001°)
5.88843655355588e+001	(2.42190007718693e+001dB,1.40754496708115e+001°)
6.02559586074357e+001	(2.42748755517093e+001dB,1.30759565908416e+001°)
6.16595001861481e+001	(2.43278428637434e+001dB,1.20691156239805e+001°)
6.30957344480192e+001	(2.43778939974208e+001dB,1.10551247075159e+001°)
6.45654229034654e+001	(2.44250207947156e+001dB,1.00341729802278e+001°)
6.60693448007595e+001	(2.44692155135127e+001dB,9.00644063785974e+000°)
6.76082975391980e+001	(2.45104706885674e+001dB,7.97209886352419e+000°)
6.91830970918935e+001	(2.45487789909797e+001dB,6.93130983417945e+000°)
7.07945784384136e+001	(2.45841330871256e+001dB,5.88422680376001e+000°)
7.24435960074988e+001	(2.46165254979845e+001dB,4.83099426300445e+000°)
7.41310241300916e+001	(2.46459484597854e+001dB,3.77174817550149e+000°)
7.58577575029182e+001	(2.46723937868771e+001dB,2.70661628897992e+000°)
7.76247116628690e+001	(2.46958527377010e+001dB,1.63571852039682e+000°)
7.94328234724279e+001	(2.47163158847119e+001dB,5.59167412939960e-001°)
8.12830516164097e+001	(2.47337729890606e+001dB,-5.22931337348420e-001°)
8.31763771102669e+001	(2.47482128808068e+001dB,-1.61047828799337e+000°)
8.51138038202374e+001	(2.47596233453936e+001dB,-2.70337959256370e+000°)
8.70963589956078e+001	(2.47679910170649e+001dB,-3.80154628252003e+000°)
8.91250938133743e+001	(2.47733012798627e+001dB,-4.90489349202796e+000°)
9.12010839355907e+001	(2.47755381767920e+001dB,-6.01333962957477e+000°)
9.33254300796988e+001	(2.47746843276910e+001dB,-7.12680550044359e+000°)
9.54992586021433e+001	(2.47707208562954e+001dB,-8.24521338428748e+000°)
9.77237220955808e+001	(2.47636273269332e+001dB,-9.36848607220638e+000°)
9.99999999999997e+001	(2.47533816912393e+001dB,-1.04965458678703e+001°)
1.02329299228075e+002	(2.47399602452258e+001dB,-1.16293135573460e+001°)
1.04712854805090e+002	(2.47233375969960e+001dB,-1.27667073523803e+001°)
1.07151930523760e+002	(2.47034866453383e+001dB,-1.39086418119709e+001°)
1.09647819614318e+002	(2.46803785693888e+001dB,-1.50550267471127e+001°)
1.12201845430196e+002	(2.46539828294995e+001dB,-1.62057661136472e+001°)
1.14815362149688e+002	(2.46242671794006e+001dB,-1.73607568981718e+001°)
1.17489755493953e+002	(2.45911976896961e+001dB,-1.85198880019668e+001°)
1.20226443461741e+002	(2.45547387826809e+001dB,-1.96830391278938e+001°)
1.23026877081238e+002	(2.45148532784184e+001dB,-2.08500796751878e+001°)
1.25892541179416e+002	(2.44715024519694e+001dB,-2.20208676470210e+001°)
1.28824955169313e+002	(2.44246461016083e+001dB,-2.31952485756485e+001°)
1.31825673855640e+002	(2.43742426278179e+001dB,-2.43730544698588e+001°)
1.34896288259165e+002	(2.43202491228007e+001dB,-2.55541027893377e+001°)
1.38038426460288e+002	(2.42626214701948e+001dB,-2.67381954504222e+001°)
1.41253754462275e+002	(2.42013144546353e+001dB,-2.79251178675528e+001°)
1.44543977074592e+002	(2.41362818807517e+001dB,-2.91146380345443e+001°)
1.47910838816820e+002	(2.40674767011480e+001dB,-3.03065056495730e+001°)
1.51356124843620e+002	(2.39948511528615e+001dB,-3.15004512875284e+001°)
1.54881661891248e+002	(2.39183569017622e+001dB,-3.26961856230933e+001°)
1.58489319246111e+002	(2.38379451943052e+001dB,-3.38933987076051e+001°)
1.62181009735892e+002	(2.37535670160224e+001dB,-3.50917593024055e+001°)
1.65958690743755e+002	(2.36651732560983e+001dB,-3.62909142710141e+001°)
1.69824365246174e+002	(2.35727148773569e+001dB,-3.74904880320577e+001°)
1.73780082874937e+002	(2.34761430909567e+001dB,-3.86900820744625e+001°)
1.77827941003892e+002	(2.33754095350836e+001dB,-3.98892745359629e+001°)
1.81970085860998e+002	(2.32704664569155e+001dB,-4.10876198455155e+001°)
1.86208713666286e+002	(2.31612668971368e+001dB,-4.22846484297164e+001°)
1.90546071796324e+002	(2.30477648762846e+001dB,-4.34798664828299e+001°)
1.94984459975804e+002	(2.29299155822225e+001dB,-4.46727557995288e+001°)
1.99526231496887e+002	(2.28076755580631e+001dB,-4.58627736689499e+001°)
2.04173794466952e+002	(2.26810028898893e+001dB,-4.70493528281650e+001°)
2.08929613085403e+002	(2.25498573936665e+001dB,-4.82319014726829e+001°)
2.13796208950222e+002	(2.24142008007869e+001dB,-4.94098033211262e+001°)
2.18776162394954e+002	(2.22739969417430e+001dB,-5.05824177307734e+001°)
2.23872113856833e+002	(2.21292119274983e+001dB,-5.17490798602385e+001°)
2.29086765276776e+002	(2.19798143281941e+001dB,-5.29091008751616e+001°)
2.34422881531991e+002	(2.18257753489183e+001dB,-5.40617681924376e+001°)
2.39883291901948e+002	(2.16670690023541e+001dB,-5.52063457581923e+001°)
2.45470891568502e+002	(2.15036722782245e+001dB,-5.63420743544545e+001°)
2.51188643150957e+002	(2.13355653095621e+001dB,-5.74681719292569e+001°)
2.57039578276885e+002	(2.11627315359444e+001dB,-5.85838339447457e+001°)
2.63026799189537e+002	(2.09851578639637e+001dB,-5.96882337377835e+001°)
2.69153480392690e+002	(2.08028348253321e+001dB,-6.07805228875052e+001°)
2.75422870333816e+002	(2.06157567331612e+001dB,-6.18598315843364e+001°)
2.81838293126444e+002	(2.04239218371066e+001dB,-6.29252689951145e+001°)
2.88403150312659e+002	(2.02273324782225e+001dB,-6.39759236191761e+001°)
2.95120922666637e+002	(2.00259952445391e+001dB,-6.50108636305954e+001°)
3.01995172040200e+002	(1.98199211285462e+001dB,-6.60291372022001e+001°)
3.09029543251358e+002	(1.96091256879525e+001dB,-6.70297728075536e+001°)
3.16227766016837e+002	(1.93936292112765e+001dB,-6.80117794978055e+001°)
3.23593656929627e+002	(1.91734568900284e+001dB,-6.89741471511910e+001°)
3.31131121482590e+002	(1.89486389994453e+001dB,-6.99158466940239e+001°)
3.38844156139201e+002	(1.87192110899558e+001dB,-7.08358302933141e+001°)
3.46736850452530e+002	(1.84852141917703e+001dB,-7.17330315226667e+001°)
3.54813389233574e+002	(1.82466950352100e+001dB,-7.26063655049328e+001°)
3.63078054770100e+002	(1.80037062896110e+001dB,-7.34547290372086e+001°)
3.71535229097171e+002	(1.77563068238542e+001dB,-7.42770007062738e+001°)
3.80189396320559e+002	(1.75045619917770e+001dB,-7.50720410054560e+001°)
3.89045144994279e+002	(1.72485439459116e+001dB,-7.58386924672639e+001°)
3.98107170553495e+002	(1.69883319831567e+001dB,-7.65757798299973e+001°)
4.07380277804111e+002	(1.67240129261125e+001dB,-7.72821102609645e+001°)
4.16869383470333e+002	(1.64556815438821e+001dB,-7.79564736639822e+001°)
4.26579518801591e+002	(1.61834410161459e+001dB,-7.85976431045366e+001°)
4.36515832240164e+002	(1.59074034442271e+001dB,-7.92043753924012e+001°)
4.46683592150961e+002	(1.56276904126644e+001dB,-7.97754118686698e+001°)
4.57088189614873e+002	(1.53444336044575e+001dB,-8.03094794520814e+001°)
4.67735141287196e+002	(1.50577754726224e+001dB,-8.08052920081997e+001°)
4.78630092322636e+002	(1.47678699699362e+001dB,-8.12615521143952e+001°)
4.89778819368444e+002	(1.44748833377276e+001dB,-8.16769533036098e+001°)
5.01187233627270e+002	(1.41789949532205e+001dB,-8.20501828803800e+001°)
5.12861383991362e+002	(1.38803982332009e+001dB,-8.23799254133524e+001°)
5.24807460249770e+002	(1.35793015895983e+001dB,-8.26648670191932e+001°)
5.37031796370250e+002	(1.32759294298770e+001dB,-8.29037005629307e+001°)
5.49540873857622e+002	(1.29705231918557e+001dB,-8.30951319087439e+001°)
5.62341325190346e+002	(1.26633423986593e+001dB,-8.32378873622457e+001°)
5.75439937337154e+002	(1.23546657149049e+001dB,-8.33307224493848e+001°)
5.88843655355586e+002	(1.20447919799042e+001dB,-8.33724321769797e+001°)
6.02559586074355e+002	(1.17340411876422e+001dB,-8.33618629141172e+001°)
6.16595001861479e+002	(1.14227553766077e+001dB,-8.32979260204747e+001°)
6.30957344480190e+002	(1.11112993853379e+001dB,-8.31796133251345e+001°)
6.45654229034652e+002	(1.08000614219856e+001dB,-8.30060145255662e+001°)
6.60693448007592e+002	(1.04894533886392e+001dB,-8.27763365290649e+001°)
6.76082975391978e+002	(1.01799108939486e+001dB,-8.24899246960708e+001°)
6.91830970918933e+002	(9.87189288140939e+000dB,-8.21462858648941e+001°)
7.07945784384134e+002	(9.56588079614053e+000dB,-8.17451129395477e+001°)
7.24435960074986e+002	(9.26237721102822e+000dB,-8.12863107068707e+001°)
7.41310241300914e+002	(8.96190383465688e+000dB,-8.07700224176696e+001°)
7.58577575029180e+002	(8.66499882954767e+000dB,-8.01966565229634e+001°)
7.76247116628688e+002	(8.37221338087631e+000dB,-7.95669128067564e+001°)
7.94328234724277e+002	(8.08410747391039e+000dB,-7.88818070099284e+001°)
8.12830516164095e+002	(7.80124486345530e+000dB,-7.81426929073996e+001°)
8.31763771102666e+002	(7.52418725072750e+000dB,-7.73512806966888e+001°)
8.51138038202372e+002	(7.25348772173467e+000dB,-7.65096504959426e+001°)
8.70963589956076e+002	(6.98968354508757e+000dB,-7.56202597493999e+001°)
8.91250938133741e+002	(6.73328847396543e+000dB,-7.46859434124913e+001°)
9.12010839355905e+002	(6.48478474359051e+000dB,-7.37099059480126e+001°)
9.33254300796986e+002	(6.24461499819437e+000dB,-7.26957044136344e+001°)
9.54992586021431e+002	(6.01317441579283e+000dB,-7.16472222557207e+001°)
9.77237220955805e+002	(5.79080332085942e+000dB,-7.05686338316421e+001°)
9.99999999999994e+002	(5.57778058048187e+000dB,-6.94643601391071e+001°)
1.02329299228075e+003	(5.37431806623237e+000dB,-6.83390167042789e+001°)
1.04712854805089e+003	(5.18055643086312e+000dB,-6.71973550323370e+001°)
1.07151930523760e+003	(4.99656239713157e+000dB,-6.60441994145124e+001°)
1.09647819614318e+003	(4.82232768870752e+000dB,-6.48843811773787e+001°)
1.12201845430196e+003	(4.65776965519226e+000dB,-6.37226726243201e+001°)
1.14815362149688e+003	(4.50273356105375e+000dB,-6.25637229388728e+001°)
1.17489755493952e+003	(4.35699642855582e+000dB,-6.14119981929958e+001°)
1.20226443461741e+003	(4.22027225402614e+000dB,-6.02717273432452e+001°)
1.23026877081237e+003	(4.09221836044969e+000dB,-5.91468557303799e+001°)
1.25892541179416e+003	(3.97244261106303e+000dB,-5.80410071584912e+001°)
1.28824955169313e+003	(3.86051118999612e+000dB,-5.69574551582021e+001°)
1.31825673855640e+003	(3.75595665665677e+000dB,-5.58991035740300e+001°)
1.34896288259165e+003	(3.65828599830472e+000dB,-5.48684761928337e+001°)
1.38038426460288e+003	(3.56698843665397e+000dB,-5.38677147742975e+001°)
1.41253754462275e+003	(3.48154278519377e+000dB,-5.28985845717355e+001°)
1.44543977074592e+003	(3.40142419990076e+000dB,-5.19624862483105e+001°)
1.47910838816820e+003	(3.32611021313051e+000dB,-5.10604729975197e+001°)
1.51356124843620e+003	(3.25508598539280e+000dB,-5.01932716582293e+001°)
1.54881661891247e+003	(3.18784874995958e+000dB,-4.93613066600112e+001°)
1.58489319246110e+003	(3.12391145924526e+000dB,-4.85647257283231e+001°)
1.62181009735892e+003	(3.06280566888863e+000dB,-4.78034264053300e+001°)
1.65958690743755e+003	(3.00408371539562e+000dB,-4.70770825863768e+001°)
1.69824365246173e+003	(2.94732025652893e+000dB,-4.63851704220140e+001°)
1.73780082874936e+003	(2.89211325115556e+000dB,-4.57269930814592e+001°)
1.77827941003891e+003	(2.83808445796433e+000dB,-4.51017040085981e+001°)
1.81970085860997e+003	(2.78487953137875e+000dB,-4.45083284217037e+001°)
1.86208713666286e+003	(2.73216778910679e+000dB,-4.39457829107585e+001°)
1.90546071796323e+003	(2.67964171998116e+000dB,-4.34128930709926e+001°)
1.94984459975803e+003	(2.62701629380648e+000dB,-4.29084091786336e+001°)
1.99526231496887e+003	(2.57402812745237e+000dB,-4.24310199663221e+001°)
2.04173794466952e+003	(2.52043455388242e+000dB,-4.19793645930690e+001°)
2.08929613085403e+003	(2.46601263352536e+000dB,-4.15520429291078e+001°)
2.13796208950222e+003	(2.41055814060607e+000dB,-4.11476242916209e+001°)
2.18776162394954e+003	(2.35388455089875e+000dB,-4.07646547750830e+001°)
2.23872113856832e+003	(2.29582205191334e+000dB,-4.04016633216447e+001°)
2.29086765276776e+003	(2.23621659179579e+000dB,-4.00571666741247e+001°)
2.34422881531991e+003	(2.17492897919566e+000dB,-3.97296733481105e+001°)
2.39883291901947e+003	(2.11183404298739e+000dB,-3.94176867514397e+001°)
2.45470891568501e+003	(2.04681985796793e+000dB,-3.91197075698221e+001°)
2.51188643150956e+003	(1.97978704042869e+000dB,-3.88342355272333e+001°)
2.57039578276885e+003	(1.91064811574837e+000dB,-3.85597706194679e+001°)
2.63026799189536e+003	(1.83932695880980e+000dB,-3.82948139092820e+001°)
2.69153480392690e+003	(1.76575830704855e+000dB,-3.80378679621379e+001°)
2.75422870333815e+003	(1.68988734523695e+000dB,-3.77874369928911e+001°)
2.81838293126443e+003	(1.61166936064455e+000dB,-3.75420267859592e+001°)
2.88403150312659e+003	(1.53106946695023e+000dB,-3.73001444446536e+001°)
2.95120922666636e+003	(1.44806239517135e+000dB,-3.70602980195021e+001°)
3.01995172040199e+003	(1.36263234988785e+000dB,-3.68209960605487e+001°)
3.09029543251357e+003	(1.27477292914143e+000dB,-3.65807471348023e+001°)
3.16227766016836e+003	(1.18448710655482e+000dB,-3.63380593472133e+001°)
3.23593656929626e+003	(1.09178727441653e+000dB,-3.60914399017702e+001°)
3.31131121482589e+003	(9.96695346690105e-001dB,-3.58393947385255e+001°)
3.38844156139200e+003	(8.99242921107903e-001dB,-3.55804282825419e+001°)
3.46736850452529e+003	(7.99471499676551e-001dB,-3.53130433419105e+001°)
3.54813389233573e+003	(6.97432767029089e-001dB,-3.50357411940625e+001°)
3.63078054770099e+003	(5.93188926082892e-001dB,-3.47470219025921e+001°)
3.71535229097170e+003	(4.86813090375424e-001dB,-3.44453849106418e+001°)
3.80189396320558e+003	(3.78389732222130e-001dB,-3.41293299615507e+001°)
3.89045144994278e+003	(2.68015185441218e-001dB,-3.37973584028193e+001°)
3.98107170553494e+003	(1.55798200782786e-001dB,-3.34479749354097e+001°)
4.07380277804110e+003	(4.18605513477601e-002dB,-3.30796898768067e+001°)
4.16869383470332e+003	(-7.36623158541813e-002dB,-3.26910220129132e+001°)
4.26579518801589e+003	(-1.90620587521212e-001dB,-3.22805021204680e+001°)
4.36515832240162e+003	(-3.08849357994054e-001dB,-3.18466772478914e+001°)
4.46683592150960e+003	(-4.28167878889507e-001dB,-3.13881158478467e+001°)
4.57088189614871e+003	(-5.48378796491198e-001dB,-3.09034138587691e+001°)
4.67735141287194e+003	(-6.69267392100034e-001dB,-3.03912018344868e+001°)
4.78630092322634e+003	(-7.90600844165668e-001dB,-2.98501532199987e+001°)
4.89778819368442e+003	(-9.12127535102075e-001dB,-2.92789938665128e+001°)
5.01187233627268e+003	(-1.03357643019226e+000dB,-2.86765128688953e+001°)
5.12861383991361e+003	(-1.15465656082500e+000dB,-2.80415747924937e+001°)
5.24807460249768e+003	(-1.27505664934615e+000dB,-2.73731333326103e+001°)
5.37031796370248e+003	(-1.39444491785009e+000dB,-2.66702464174022e+001°)
5.49540873857620e+003	(-1.51246912801276e+000dB,-2.59320927224845e+001°)
5.62341325190344e+003	(-1.62875690322277e+000dB,-2.51579895120461e+001°)
5.75439937337152e+003	(-1.74291638736344e+000dB,-2.43474116563088e+001°)
5.88843655355584e+003	(-1.85453729611554e+000dB,-2.35000115987440e+001°)
