Freq.	V(vout)
Step Information: Run=1  (Run: 1/18)
1.00000000000000e+001	(-2.48359308621026e+000dB,-4.68451910342946e+001°)
1.02329299228075e+001	(-2.63417231587587e+000dB,-4.68537699954438e+001°)
1.04712854805090e+001	(-2.78497794110629e+000dB,-4.68462039219245e+001°)
1.07151930523761e+001	(-2.93594098020834e+000dB,-4.68224276267989e+001°)
1.09647819614319e+001	(-3.08699231757454e+000dB,-4.67823877598742e+001°)
1.12201845430196e+001	(-3.23806274387729e+000dB,-4.67260427711006e+001°)
1.14815362149688e+001	(-3.38908299559435e+000dB,-4.66533628848930e+001°)
1.17489755493953e+001	(-3.53998379426094e+000dB,-4.65643300856933e+001°)
1.20226443461741e+001	(-3.69069588584565e+000dB,-4.64589381147745e+001°)
1.23026877081238e+001	(-3.84115008064496e+000dB,-4.63371924779744e+001°)
1.25892541179417e+001	(-3.99127729408443e+000dB,-4.61991104637340e+001°)
1.28824955169313e+001	(-4.14100858880277e+000dB,-4.60447211705048e+001°)
1.31825673855641e+001	(-4.29027521837923e+000dB,-4.58740655422939e+001°)
1.34896288259165e+001	(-4.43900867304402e+000dB,-4.56871964108157e+001°)
1.38038426460288e+001	(-4.58714072768648e+000dB,-4.54841785424452e+001°)
1.41253754462275e+001	(-4.73460349244627e+000dB,-4.52650886878982e+001°)
1.44543977074593e+001	(-4.88132946613903e+000dB,-4.50300156323134e+001°)
1.47910838816821e+001	(-5.02725159273045e+000dB,-4.47790602431842e+001°)
1.51356124843621e+001	(-5.17230332103016e+000dB,-4.45123355133780e+001°)
1.54881661891248e+001	(-5.31641866773183e+000dB,-4.42299665962987e+001°)
1.58489319246111e+001	(-5.45953228387624e+000dB,-4.39320908300969e+001°)
1.62181009735893e+001	(-5.60157952476176e+000dB,-4.36188577477063e+001°)
1.65958690743756e+001	(-5.74249652327165e+000dB,-4.32904290694005e+001°)
1.69824365246174e+001	(-5.88222026652961e+000dB,-4.29469786745091e+001°)
1.73780082874937e+001	(-6.02068867573607e+000dB,-4.25886925489261e+001°)
1.77827941003892e+001	(-6.15784068897647e+000dB,-4.22157687050697e+001°)
1.81970085860998e+001	(-6.29361634673186e+000dB,-4.18284170710312e+001°)
1.86208713666287e+001	(-6.42795687976076e+000dB,-4.14268593457711e+001°)
1.90546071796325e+001	(-6.56080479896104e+000dB,-4.10113288173859e+001°)
1.94984459975804e+001	(-6.69210398676182e+000dB,-4.05820701416900e+001°)
1.99526231496888e+001	(-6.82179978953998e+000dB,-4.01393390786137e+001°)
2.04173794466953e+001	(-6.94983911050272e+000dB,-3.96834021842320e+001°)
2.08929613085404e+001	(-7.07617050243037e+000dB,-3.92145364565900e+001°)
2.13796208950223e+001	(-7.20074425963077e+000dB,-3.87330289338877e+001°)
2.18776162394955e+001	(-7.32351250841994e+000dB,-3.82391762440199e+001°)
2.23872113856834e+001	(-7.44442929541526e+000dB,-3.77332841049357e+001°)
2.29086765276777e+001	(-7.56345067290485e+000dB,-3.72156667757807e+001°)
2.34422881531992e+001	(-7.68053478054521e+000dB,-3.66866464593004e+001°)
2.39883291901949e+001	(-7.79564192263415e+000dB,-3.61465526565257e+001°)
2.45470891568503e+001	(-7.90873464021283e+000dB,-3.55957214753000e+001°)
2.51188643150958e+001	(-8.01977777726532e+000dB,-3.50344948947556e+001°)
2.57039578276886e+001	(-8.12873854031002e+000dB,-3.44632199883844e+001°)
2.63026799189538e+001	(-8.23558655071225e+000dB,-3.38822481088677e+001°)
2.69153480392691e+001	(-8.34029388909198e+000dB,-3.32919340383277e+001°)
2.75422870333816e+001	(-8.44283513125463e+000dB,-3.26926351081246e+001°)
2.81838293126445e+001	(-8.54318737513518e+000dB,-3.20847102927486e+001°)
2.88403150312660e+001	(-8.64133025831547e+000dB,-3.14685192827251e+001°)
2.95120922666638e+001	(-8.73724596575158e+000dB,-3.08444215417746e+001°)
3.01995172040201e+001	(-8.83091922743032e+000dB,-3.02127753537235e+001°)
3.09029543251359e+001	(-8.92233730575974e+000dB,-2.95739368648540e+001°)
3.16227766016838e+001	(-9.01148997258905e+000dB,-2.89282591275080e+001°)
3.23593656929628e+001	(-9.09836947584340e+000dB,-2.82760911508095e+001°)
3.31131121482591e+001	(-9.18297049585080e+000dB,-2.76177769643528e+001°)
3.38844156139202e+001	(-9.26529009152792e+000dB,-2.69536547006142e+001°)
3.46736850452531e+001	(-9.34532763667904e+000dB,-2.62840557016877e+001°)
3.54813389233575e+001	(-9.42308474674517e+000dB,-2.56093036557199e+001°)
3.63078054770101e+001	(-9.49856519641868e+000dB,-2.49297137681369e+001°)
3.71535229097172e+001	(-9.57177482861004e+000dB,-2.42455919724179e+001°)
3.80189396320561e+001	(-9.64272145531760e+000dB,-2.35572341847784e+001°)
3.89045144994280e+001	(-9.71141475100727e+000dB,-2.28649256067041e+001°)
3.98107170553497e+001	(-9.77786613915670e+000dB,-2.21689400788074e+001°)
4.07380277804112e+001	(-9.84208867265628e+000dB,-2.14695394889990e+001°)
4.16869383470335e+001	(-9.90409690878825e+000dB,-2.07669732374577e+001°)
4.26579518801592e+001	(-9.96390677952487e+000dB,-2.00614777603760e+001°)
4.36515832240165e+001	(-1.00215354578959e+001dB,-1.93532761139447e+001°)
4.46683592150962e+001	(-1.00770012211774e+001dB,-1.86425776195382e+001°)
4.57088189614874e+001	(-1.01303233116455e+001dB,-1.79295775705747e+001°)
4.67735141287197e+001	(-1.01815217956235e+001dB,-1.72144570010595e+001°)
4.78630092322638e+001	(-1.02306174215285e+001dB,-1.64973825153812e+001°)
4.89778819368445e+001	(-1.02776314775920e+001dB,-1.57785061785258e+001°)
5.01187233627271e+001	(-1.03225856498971e+001dB,-1.50579654655034e+001°)
5.12861383991364e+001	(-1.03655018813317e+001dB,-1.43358832684546e+001°)
5.24807460249772e+001	(-1.04064022320151e+001dB,-1.36123679596149e+001°)
5.37031796370252e+001	(-1.04453087417099e+001dB,-1.28875135080736e+001°)
5.49540873857624e+001	(-1.04822432946781e+001dB,-1.21613996480618e+001°)
5.62341325190348e+001	(-1.05172274873957e+001dB,-1.14340920963493e+001°)
5.75439937337156e+001	(-1.05502824994858e+001dB,-1.07056428162163e+001°)
5.88843655355588e+001	(-1.05814289681822e+001dB,-9.97609032539345e+000°)
6.02559586074357e+001	(-1.06106868665875e+001dB,-9.24546004532971e+000°)
6.16595001861481e+001	(-1.06380753859396e+001dB,-8.51376468915178e+000°)
6.30957344480192e+001	(-1.06636128220615e+001dB,-7.78100468571380e+000°)
6.45654229034654e+001	(-1.06873164661199e+001dB,-7.04716863720352e+000°)
6.60693448007595e+001	(-1.07092024997885e+001dB,-6.31223380786490e+000°)
6.76082975391980e+001	(-1.07292858948677e+001dB,-5.57616664151347e+000°)
6.91830970918935e+001	(-1.07475803173877e+001dB,-4.83892330565838e+000°)
7.07945784384136e+001	(-1.07640980361914e+001dB,-4.10045026019820e+000°)
7.24435960074988e+001	(-1.07788498359700e+001dB,-3.36068484882405e+000°)
7.41310241300916e+001	(-1.07918449347058e+001dB,-2.61955591143958e+000°)
7.58577575029182e+001	(-1.08030909054593e+001dB,-1.87698441609024e+000°)
7.76247116628690e+001	(-1.08125936024293e+001dB,-1.13288410908050e+000°)
7.94328234724279e+001	(-1.08203570912025e+001dB,-3.87162182144664e-001°)
8.12830516164097e+001	(-1.08263835831098e+001dB,3.60280044277822e-001°)
8.31763771102669e+001	(-1.08306733736023e+001dB,1.10954642243070e+000°)
8.51138038202374e+001	(-1.08332247845662e+001dB,1.86074526388548e+000°)
8.70963589956078e+001	(-1.08340341104990e+001dB,2.61398861186983e+000°)
8.91250938133743e+001	(-1.08330955684813e+001dB,3.36939149954991e+000°)
9.12010839355907e+001	(-1.08304012518893e+001dB,4.12707119439225e+000°)
9.33254300796988e+001	(-1.08259410878075e+001dB,4.88714642860021e+000°)
9.54992586021433e+001	(-1.08197027981186e+001dB,5.64973661550205e+000°)
9.77237220955808e+001	(-1.08116718642668e+001dB,6.41496105166688e+000°)
9.99999999999997e+001	(-1.08018314957112e+001dB,7.18293810443980e+000°)
1.02329299228075e+002	(-1.07901626021082e+001dB,7.95378438452088e+000°)
1.04712854805090e+002	(-1.07766437692862e+001dB,8.72761390316261e+000°)
1.07151930523760e+002	(-1.07612512391020e+001dB,9.50453721353249e+000°)
1.09647819614318e+002	(-1.07439588932906e+001dB,1.02846605357763e+001°)
1.12201845430196e+002	(-1.07247382414512e+001dB,1.10680848653281e+001°)
1.14815362149688e+002	(-1.07035584133355e+001dB,1.18549050640452e+001°)
1.17489755493953e+002	(-1.06803861556319e+001dB,1.26452089337973e+001°)
1.20226443461741e+002	(-1.06551858334676e+001dB,1.34390762722135e+001°)
1.23026877081238e+002	(-1.06279194368743e+001dB,1.42365779103863e+001°)
1.25892541179416e+002	(-1.05985465924892e+001dB,1.50377747324485e+001°)
1.28824955169313e+002	(-1.05670245807884e+001dB,1.58427166770779e+001°)
1.31825673855640e+002	(-1.05333083591690e+001dB,1.66514417211434e+001°)
1.34896288259165e+002	(-1.04973505912212e+001dB,1.74639748458877e+001°)
1.38038426460288e+002	(-1.04591016825457e+001dB,1.82803269862437e+001°)
1.41253754462275e+002	(-1.04185098234915e+001dB,1.91004939640979e+001°)
1.44543977074592e+002	(-1.03755210391987e+001dB,1.99244554065572e+001°)
1.47910838816820e+002	(-1.03300792473427e+001dB,2.07521736505262e+001°)
1.51356124843620e+002	(-1.02821263239813e+001dB,2.15835926351731e+001°)
1.54881661891248e+002	(-1.02316021779076e+001dB,2.24186367841430e+001°)
1.58489319246111e+002	(-1.01784448339094e+001dB,2.32572098796705e+001°)
1.62181009735892e+002	(-1.01225905253286e+001dB,2.40991939310404e+001°)
1.65958690743755e+002	(-1.00639737963006e+001dB,2.49444480401472e+001°)
1.69824365246174e+002	(-1.00025276140373e+001dB,2.57928072672065e+001°)
1.73780082874937e+002	(-9.93818349149376e+000dB,2.66440814999673e+001°)
1.77827941003892e+002	(-9.87087162072841e+000dB,2.74980543300589e+001°)
1.81970085860998e+002	(-9.80052101723543e+000dB,2.83544819403836e+001°)
1.86208713666286e+002	(-9.72705967548487e+000dB,2.92130920077131e+001°)
1.90546071796324e+002	(-9.65041473586321e+000dB,3.00735826248755e+001°)
1.94984459975804e+002	(-9.57051266315562e+000dB,3.09356212471151e+001°)
1.99526231496887e+002	(-9.48727943665757e+000dB,3.17988436673623e+001°)
2.04173794466952e+002	(-9.40064075194380e+000dB,3.26628530252642e+001°)
2.08929613085403e+002	(-9.31052223426200e+000dB,3.35272188548914e+001°)
2.13796208950222e+002	(-9.21684966345404e+000dB,3.43914761760442e+001°)
2.18776162394954e+002	(-9.11954921024313e+000dB,3.52551246340282e+001°)
2.23872113856833e+002	(-9.01854768366097e+000dB,3.61176276926562e+001°)
2.29086765276776e+002	(-8.91377278932607e+000dB,3.69784118850492e+001°)
2.34422881531991e+002	(-8.80515339822605e+000dB,3.78368661265542e+001°)
2.39883291901948e+002	(-8.69261982560268e+000dB,3.86923410937782e+001°)
2.45470891568502e+002	(-8.57610411949335e+000dB,3.95441486733401e+001°)
2.51188643150957e+002	(-8.45554035844559e+000dB,4.03915614834903e+001°)
2.57039578276885e+002	(-8.33086495789795e+000dB,4.12338124712240e+001°)
2.63026799189537e+002	(-8.20201698470994e+000dB,4.20700945869454e+001°)
2.69153480392690e+002	(-8.06893847933101e+000dB,4.28995605381251e+001°)
2.75422870333816e+002	(-7.93157478512391e+000dB,4.37213226227499e+001°)
2.81838293126444e+002	(-7.78987488440526e+000dB,4.45344526427064e+001°)
2.88403150312659e+002	(-7.64379174083598e+000dB,4.53379818965942e+001°)
2.95120922666637e+002	(-7.49328264789060e+000dB,4.61309012508410e+001°)
3.01995172040200e+002	(-7.33830958325643e+000dB,4.69121612874351e+001°)
3.09029543251358e+002	(-7.17883956916485e+000dB,4.76806725261107e+001°)
3.16227766016837e+002	(-7.01484503883664e+000dB,4.84353057184736e+001°)
3.23593656929627e+002	(-6.84630420943233e+000dB,4.91748922113563e+001°)
3.31131121482590e+002	(-6.67320146213712e+000dB,4.98982243767022e+001°)
3.38844156139201e+002	(-6.49552773027562e+000dB,5.06040561055281e+001°)
3.46736850452530e+002	(-6.31328089664407e+000dB,5.12911033640656e+001°)
3.54813389233574e+002	(-6.12646620156287e+000dB,5.19580448110778e+001°)
3.63078054770100e+002	(-5.93509666348605e+000dB,5.26035224766470e+001°)
3.71535229097171e+002	(-5.73919351435226e+000dB,5.32261425044975e+001°)
3.80189396320559e+002	(-5.53878665221496e+000dB,5.38244759622075e+001°)
3.89045144994279e+002	(-5.33391511404139e+000dB,5.43970597265524e+001°)
3.98107170553495e+002	(-5.12462757190605e+000dB,5.49423974547648e+001°)
4.07380277804111e+002	(-4.91098285611515e+000dB,5.54589606567745e+001°)
4.16869383470333e+002	(-4.69305050906248e+000dB,5.59451898885607e+001°)
4.26579518801591e+002	(-4.47091137381855e+000dB,5.63994960926858e+001°)
4.36515832240164e+002	(-4.24465822156536e+000dB,5.68202621189313e+001°)
4.46683592150961e+002	(-4.01439642198259e+000dB,5.72058444657858e+001°)
4.57088189614873e+002	(-3.78024466053070e+000dB,5.75545752923558e+001°)
4.67735141287196e+002	(-3.54233570622282e+000dB,5.78647647601131e+001°)
4.78630092322636e+002	(-3.30081723288230e+000dB,5.81347037747072e+001°)
4.89778819368444e+002	(-3.05585269599245e+000dB,5.83626672098004e+001°)
5.01187233627270e+002	(-2.80762226599586e+000dB,5.85469177073779e+001°)
5.12861383991362e+002	(-2.55632381722529e+000dB,5.86857101620228e+001°)
5.24807460249770e+002	(-2.30217396946856e+000dB,5.87772970098823e+001°)
5.37031796370250e+002	(-2.04540917640761e+000dB,5.88199344560248e+001°)
5.49540873857622e+002	(-1.78628685174436e+000dB,5.88118897859255e+001°)
5.62341325190346e+002	(-1.52508651965462e+000dB,5.87514499170873e+001°)
5.75439937337154e+002	(-1.26211097122906e+000dB,5.86369313541778e+001°)
5.88843655355586e+002	(-9.97687402719595e-001dB,5.84666917141828e+001°)
6.02559586074355e+002	(-7.32168504696319e-001dB,5.82391429852527e+001°)
6.16595001861479e+002	(-4.65933463671630e-001dB,5.79527666721711e+001°)
6.30957344480190e+002	(-1.99388829471733e-001dB,5.76061309604384e+001°)
6.45654229034652e+002	(6.70308071677345e-002dB,5.71979099973483e+001°)
6.60693448007592e+002	(3.32862391312687e-001dB,5.67269053395400e+001°)
6.76082975391978e+002	(5.97614308122872e-001dB,5.61920695498318e+001°)
6.91830970918933e+002	(8.60766695844553e-001dB,5.55925318395229e+001°)
7.07945784384134e+002	(1.12177225474866e+000dB,5.49276255443623e+001°)
7.24435960074986e+002	(1.38005764266863e+000dB,5.41969170928234e+001°)
7.41310241300914e+002	(1.63502554732998e+000dB,5.34002359756851e+001°)
7.58577575029180e+002	(1.88605752007690e+000dB,5.25377050600940e+001°)
7.76247116628688e+002	(2.13251764363477e+000dB,5.16097704159852e+001°)
7.94328234724277e+002	(2.37375708708440e+000dB,5.06172296480305e+001°)
8.12830516164095e+002	(2.60911957347125e+000dB,4.95612575656315e+001°)
8.31763771102666e+002	(2.83794774917703e+000dB,4.84434278935114e+001°)
8.51138038202372e+002	(3.05959039985616e+000dB,4.72657296450647e+001°)
8.70963589956076e+002	(3.27341040687096e+000dB,4.60305767694243e+001°)
8.91250938133741e+002	(3.47879328333236e+000dB,4.47408097592767e+001°)
9.12010839355905e+002	(3.67515607376433e+000dB,4.33996880836011e+001°)
9.33254300796986e+002	(3.86195635070029e+000dB,4.20108725941670e+001°)
9.54992586021431e+002	(4.03870100041801e+000dB,4.05783974431483e+001°)
9.77237220955805e+002	(4.20495446378051e+000dB,3.91066315258864e+001°)
9.99999999999994e+002	(4.36034609136804e+000dB,3.76002299994206e+001°)
1.02329299228075e+003	(4.50457628793975e+000dB,3.60640769845528e+001°)
1.04712854805089e+003	(4.63742116086710e+000dB,3.45032210899972e+001°)
1.07151930523760e+003	(4.75873544915029e+000dB,3.29228058523360e+001°)
1.09647819614318e+003	(4.86845358999799e+000dB,3.13279975199125e+001°)
1.12201845430196e+003	(4.96658887249241e+000dB,2.97239127877328e+001°)
1.14815362149688e+003	(5.05323072479808e+000dB,2.81155490948444e+001°)
1.17489755493952e+003	(5.12854027434905e+000dB,2.65077199250032e+001°)
1.20226443461741e+003	(5.19274440163040e+000dB,2.49049972238527e+001°)
1.23026877081237e+003	(5.24612857122270e+000dB,2.33116625953066e+001°)
1.25892541179416e+003	(5.28902876460286e+000dB,2.17316684111059e+001°)
1.28824955169313e+003	(5.32182285626791e+000dB,2.01686094097939e+001°)
1.31825673855640e+003	(5.34492176905384e+000dB,1.86257048218522e+001°)
1.34896288259165e+003	(5.35876071914780e+000dB,1.71057905763212e+001°)
1.38038426460288e+003	(5.36379082077044e+000dB,1.56113207498055e+001°)
1.41253754462275e+003	(5.36047127007811e+000dB,1.41443771277288e+001°)
1.44543977074592e+003	(5.34926227274684e+000dB,1.27066855643373e+001°)
1.47910838816820e+003	(5.33061882463642e+000dB,1.12996377462885e+001°)
1.51356124843620e+003	(5.30498540364846e+000dB,9.92431697124116e+000°)
1.54881661891247e+003	(5.27279158603346e+000dB,8.58152662975992e+000°)
1.58489319246110e+003	(5.23444856351479e+000dB,7.27182020646853e+000°)
1.62181009735892e+003	(5.19034650924170e+000dB,5.99553177577463e+000°)
1.65958690743755e+003	(5.14085272054715e+000dB,4.75280614185876e+000°)
1.69824365246173e+003	(5.08631045399816e+000dB,3.54362794833190e+000°)
1.73780082874936e+003	(5.02703836218556e+000dB,2.36784924978348e+000°)
1.77827941003891e+003	(4.96333044085709e+000dB,1.22521518845922e+000°)
1.81970085860997e+003	(4.89545639809863e+000dB,1.15387550521886e-001°)
1.86208713666286e+003	(4.82366236315325e+000dB,-9.62033913874014e-001°)
1.90546071796323e+003	(4.74817186013233e+000dB,-2.00749243398825e+000°)
1.94984459975803e+003	(4.66918698049055e+000dB,-3.02145738413706e+000°)
1.99526231496887e+003	(4.58688969706439e+000dB,-4.00440957960699e+000°)
2.04173794466952e+003	(4.50144327123695e+000dB,-4.95682857549133e+000°)
2.08929613085403e+003	(4.41299371306514e+000dB,-5.87918181845992e+000°)
2.13796208950222e+003	(4.32167126178157e+000dB,-6.77191548910391e+000°)
2.18776162394954e+003	(4.22759186085414e+000dB,-7.63544686813054e+000°)
2.23872113856832e+003	(4.13085860771321e+000dB,-8.47015806134379e+000°)
2.29086765276776e+003	(4.03156316335172e+000dB,-9.27639092436726e+000°)
2.34422881531991e+003	(3.92978711131480e+000dB,-1.00544430370765e+001°)
2.39883291901947e+003	(3.82560325919043e+000dB,-1.08045645886213e+001°)
2.45470891568501e+003	(3.71907687866875e+000dB,-1.15269560458992e+001°)
2.51188643150956e+003	(3.61026688263645e+000dB,-1.22217664907548e+001°)
2.57039578276885e+003	(3.49922693969356e+000dB,-1.28890925235855e+001°)
2.63026799189536e+003	(3.38600652799798e+000dB,-1.35289776431102e+001°)
2.69153480392690e+003	(3.27065193152426e+000dB,-1.41414120236249e+001°)
2.75422870333815e+003	(3.15320718272827e+000dB,-1.47263326220079e+001°)
2.81838293126443e+003	(3.03371495628854e+000dB,-1.52836235570164e+001°)
2.88403150312659e+003	(2.91221741909251e+000dB,-1.58131167130345e+001°)
2.95120922666636e+003	(2.78875704198489e+000dB,-1.63145925294481e+001°)
3.01995172040199e+003	(2.66337737902712e+000dB,-1.67877809452857e+001°)
3.09029543251357e+003	(2.53612382014952e+000dB,-1.72323624767743e+001°)
3.16227766016836e+003	(2.40704432313009e+000dB,-1.76479694131012e+001°)
3.23593656929626e+003	(2.27619013081346e+000dB,-1.80341871230404e+001°)
3.31131121482589e+003	(2.14361647939673e+000dB,-1.83905554723032e+001°)
3.38844156139200e+003	(2.00938330345520e+000dB,-1.87165703585850e+001°)
3.46736850452529e+003	(1.87355594315625e+000dB,-1.90116853784028e+001°)
3.54813389233573e+003	(1.73620585880416e+000dB,-1.92753136470149e+001°)
3.63078054770099e+003	(1.59741135746007e+000dB,-1.95068298000559e+001°)
3.71535229097170e+003	(1.45725833587125e+000dB,-1.97055722130426e+001°)
3.80189396320558e+003	(1.31584104329962e+000dB,-1.98708454826326e+001°)
3.89045144994278e+003	(1.17326286703613e+000dB,-2.00019232214327e+001°)
3.98107170553494e+003	(1.02963714239263e+000dB,-2.00980512262179e+001°)
4.07380277804110e+003	(8.85087987743307e-001dB,-2.01584510875209e+001°)
4.16869383470332e+003	(7.39751163704142e-001dB,-2.01823243165515e+001°)
4.26579518801589e+003	(5.93774953753150e-001dB,-2.01688570730630e+001°)
4.36515832240162e+003	(4.47321061463513e-001dB,-2.01172255847881e+001°)
4.46683592150960e+003	(3.00565517008417e-001dB,-2.00266023550143e+001°)
4.57088189614871e+003	(1.53699582666219e-001dB,-1.98961632592139e+001°)
4.67735141287194e+003	(6.93064368089839e-003dB,-1.97250956337423e+001°)
4.78630092322634e+003	(-1.39516932992509e-001dB,-1.95126074586497e+001°)
4.89778819368442e+003	(-2.85400993795382e-001dB,-1.92579377316888e+001°)
5.01187233627268e+003	(-4.30460873929872e-001dB,-1.89603681205524e+001°)
5.12861383991361e+003	(-5.74416784367820e-001dB,-1.86192359640341e+001°)
5.24807460249768e+003	(-7.16969347058777e-001dB,-1.82339486689169e+001°)
5.37031796370248e+003	(-8.57799320045694e-001dB,-1.78039995166560e+001°)
5.49540873857620e+003	(-9.96567559067893e-001dB,-1.73289848511636e+001°)
5.62341325190344e+003	(-1.13291526646796e+000dB,-1.68086225652699e+001°)
