Freq.	V(vout)
Step Information: Run=1  (Run: 1/18)
1.00000000000000e+001	(-2.49021501283282e+000dB,-4.87158652345891e+001°)
1.02329299228075e+001	(-2.64110625153111e+000dB,-4.87679796638111e+001°)
1.04712854805090e+001	(-2.79223858038160e+000dB,-4.88049603873182e+001°)
1.07151930523761e+001	(-2.94354370914334e+000dB,-4.88267655791791e+001°)
1.09647819614319e+001	(-3.09495324614657e+000dB,-4.88333657803819e+001°)
1.12201845430196e+001	(-3.24639874000815e+000dB,-4.88247438735850e+001°)
1.14815362149688e+001	(-3.39781172074895e+000dB,-4.88008950689839e+001°)
1.17489755493953e+001	(-3.54912374071205e+000dB,-4.87618269016128e+001°)
1.20226443461741e+001	(-3.70026641568200e+000dB,-4.87075592400789e+001°)
1.23026877081238e+001	(-3.85117146660362e+000dB,-4.86381243064182e+001°)
1.25892541179417e+001	(-4.00177076229209e+000dB,-4.85535667064434e+001°)
1.28824955169313e+001	(-4.15199636351446e+000dB,-4.84539434696500e+001°)
1.31825673855641e+001	(-4.30178056880684e+000dB,-4.83393240974414e+001°)
1.34896288259165e+001	(-4.45105596237149e+000dB,-4.82097906181438e+001°)
1.38038426460288e+001	(-4.59975546437252e+000dB,-4.80654376469984e+001°)
1.41253754462275e+001	(-4.74781238392051e+000dB,-4.79063724490532e+001°)
1.44543977074593e+001	(-4.89516047500192e+000dB,-4.77327150026242e+001°)
1.47910838816821e+001	(-5.04173399557224e+000dB,-4.75445980607668e+001°)
1.51356124843621e+001	(-5.18746776998977e+000dB,-4.73421672079892e+001°)
1.54881661891248e+001	(-5.33229725492148e+000dB,-4.71255809092557e+001°)
1.58489319246111e+001	(-5.47615860880347e+000dB,-4.68950105481756e+001°)
1.62181009735893e+001	(-5.61898876488656e+000dB,-4.66506404511455e+001°)
1.65958690743756e+001	(-5.76072550784215e+000dB,-4.63926678941298e+001°)
1.69824365246174e+001	(-5.90130755384662e+000dB,-4.61213030887053e+001°)
1.73780082874937e+001	(-6.04067463400293e+000dB,-4.58367691439893e+001°)
1.77827941003892e+001	(-6.17876758089794e+000dB,-4.55393020010960e+001°)
1.81970085860998e+001	(-6.31552841803292e+000dB,-4.52291503368419e+001°)
1.86208713666287e+001	(-6.45090045180350e+000dB,-4.49065754335410e+001°)
1.90546071796325e+001	(-6.58482836564575e+000dB,-4.45718510118929e+001°)
1.94984459975804e+001	(-6.71725831590661e+000dB,-4.42252630241867e+001°)
1.99526231496888e+001	(-6.84813802894133e+000dB,-4.38671094052981e+001°)
2.04173794466953e+001	(-6.97741689888844e+000dB,-4.34976997792686e+001°)
2.08929613085404e+001	(-7.10504608552543e+000dB,-4.31173551196041e+001°)
2.13796208950223e+001	(-7.23097861156569e+000dB,-4.27264073618253e+001°)
2.18776162394955e+001	(-7.35516945872160e+000dB,-4.23251989672317e+001°)
2.23872113856834e+001	(-7.47757566182965e+000dB,-4.19140824373084e+001°)
2.29086765276777e+001	(-7.59815640031232e+000dB,-4.14934197786978e+001°)
2.34422881531992e+001	(-7.71687308623910e+000dB,-4.10635819191746e+001°)
2.39883291901949e+001	(-7.83368944824542e+000dB,-4.06249480755956e+001°)
2.45470891568503e+001	(-7.94857161057478e+000dB,-4.01779050753363e+001°)
2.51188643150958e+001	(-8.06148816652439e+000dB,-3.97228466332674e+001°)
2.57039578276886e+001	(-8.17241024560144e+000dB,-3.92601725868579e+001°)
2.63026799189538e+001	(-8.28131157373186e+000dB,-3.87902880925053e+001°)
2.69153480392691e+001	(-8.38816852590897e+000dB,-3.83136027866907e+001°)
2.75422870333816e+001	(-8.49296017072359e+000dB,-3.78305299160066e+001°)
2.81838293126445e+001	(-8.59566830627980e+000dB,-3.73414854405298e+001°)
2.88403150312660e+001	(-8.69627748707087e+000dB,-3.68468871153731e+001°)
2.95120922666638e+001	(-8.79477504146707e+000dB,-3.63471535555654e+001°)
3.01995172040201e+001	(-8.89115107954935e+000dB,-3.58427032896595e+001°)
3.09029543251359e+001	(-8.98539849111002e+000dB,-3.53339538076509e+001°)
3.16227766016838e+001	(-9.07751293373125e+000dB,-3.48213206089102e+001°)
3.23593656929628e+001	(-9.16749281094346e+000dB,-3.43052162558715e+001°)
3.31131121482591e+001	(-9.25533924055755e+000dB,-3.37860494391972e+001°)
3.38844156139202e+001	(-9.34105601335467e+000dB,-3.32642240600372e+001°)
3.46736850452531e+001	(-9.42464954240499e+000dB,-3.27401383348340e+001°)
3.54813389233575e+001	(-9.50612880337017e+000dB,-3.22141839278927e+001°)
3.63078054770101e+001	(-9.58550526622246e+000dB,-3.16867451166376e+001°)
3.71535229097172e+001	(-9.66279281888495e+000dB,-3.11581979941298e+001°)
3.80189396320561e+001	(-9.73800768336200e+000dB,-3.06289097130164e+001°)
3.89045144994280e+001	(-9.81116832498461e+000dB,-3.00992377746446e+001°)
3.98107170553497e+001	(-9.88229535544361e+000dB,-2.95695293665953e+001°)
4.07380277804112e+001	(-9.95141143032074e+000dB,-2.90401207513928e+001°)
4.16869383470335e+001	(-1.00185411418570e+001dB,-2.85113367086261e+001°)
4.26579518801592e+001	(-1.00837109077163e+001dB,-2.79834900321942e+001°)
4.36515832240165e+001	(-1.01469488565130e+001dB,-2.74568810838546e+001°)
4.46683592150962e+001	(-1.02082847108703e+001dB,-2.69317974037420e+001°)
4.57088189614874e+001	(-1.02677496687707e+001dB,-2.64085133780085e+001°)
4.67735141287197e+001	(-1.03253762839425e+001dB,-2.58872899632601e+001°)
4.78630092322638e+001	(-1.03811983460015e+001dB,-2.53683744670009e+001°)
4.89778819368445e+001	(-1.04352507610373e+001dB,-2.48520003828704e+001°)
5.01187233627271e+001	(-1.04875694332981e+001dB,-2.43383872790703e+001°)
5.12861383991364e+001	(-1.05381911485844e+001dB,-2.38277407380230e+001°)
5.24807460249772e+001	(-1.05871534599196e+001dB,-2.33202523449942e+001°)
5.37031796370252e+001	(-1.06344945760120e+001dB,-2.28160997231433e+001°)
5.49540873857624e+001	(-1.06802532529786e+001dB,-2.23154466122395e+001°)
5.62341325190348e+001	(-1.07244686897411e+001dB,-2.18184429881006e+001°)
5.75439937337156e+001	(-1.07671804274584e+001dB,-2.13252252196683e+001°)
5.88843655355588e+001	(-1.08084282533012e+001dB,-2.08359162605367e+001°)
6.02559586074357e+001	(-1.08482521088270e+001dB,-2.03506258716857e+001°)
6.16595001861481e+001	(-1.08866920031588e+001dB,-1.98694508721473e+001°)
6.30957344480192e+001	(-1.09237879311251e+001dB,-1.93924754143393e+001°)
6.45654229034654e+001	(-1.09595797964708e+001dB,-1.89197712808372e+001°)
6.60693448007595e+001	(-1.09941073402039e+001dB,-1.84513981994185e+001°)
6.76082975391980e+001	(-1.10274100741043e+001dB,-1.79874041733034e+001°)
6.91830970918935e+001	(-1.10595272193810e+001dB,-1.75278258236196e+001°)
7.07945784384136e+001	(-1.10904976504307e+001dB,-1.70726887412451e+001°)
7.24435960074988e+001	(-1.11203598436192e+001dB,-1.66220078453207e+001°)
7.41310241300916e+001	(-1.11491518309806e+001dB,-1.61757877458719e+001°)
7.58577575029182e+001	(-1.11769111587022e+001dB,-1.57340231081352e+001°)
7.76247116628690e+001	(-1.12036748502454e+001dB,-1.52966990163476e+001°)
7.94328234724279e+001	(-1.12294793739324e+001dB,-1.48637913349191e+001°)
8.12830516164097e+001	(-1.12543606148150e+001dB,-1.44352670650762e+001°)
8.31763771102669e+001	(-1.12783538506281e+001dB,-1.40110846952241e+001°)
8.51138038202374e+001	(-1.13014937316244e+001dB,-1.35911945434398e+001°)
8.70963589956078e+001	(-1.13238142640752e+001dB,-1.31755390906599e+001°)
8.91250938133743e+001	(-1.13453487972214e+001dB,-1.27640533032815e+001°)
9.12010839355907e+001	(-1.13661300134536e+001dB,-1.23566649440348e+001°)
9.33254300796988e+001	(-1.13861899215009e+001dB,-1.19532948701249e+001°)
9.54992586021433e+001	(-1.14055598524067e+001dB,-1.15538573177662e+001°)
9.77237220955808e+001	(-1.14242704580735e+001dB,-1.11582601723549e+001°)
9.99999999999997e+001	(-1.14423517121613e+001dB,-1.07664052236338e+001°)
1.02329299228075e+002	(-1.14598329131273e+001dB,-1.03781884053085e+001°)
1.04712854805090e+002	(-1.14767426892015e+001dB,-9.99350001866280e+000°)
1.07151930523760e+002	(-1.14931090050963e+001dB,-9.61222493981176e+000°)
1.09647819614318e+002	(-1.15089591702558e+001dB,-9.23424281029943e+000°)
1.12201845430196e+002	(-1.15243198484567e+001dB,-8.85942821082036e+000°)
1.14815362149688e+002	(-1.15392170685780e+001dB,-8.48765081790017e+000°)
1.17489755493953e+002	(-1.15536762363661e+001dB,-8.11877554342100e+000°)
1.20226443461741e+002	(-1.15677221470255e+001dB,-7.75266265692167e+000°)
1.23026877081238e+002	(-1.15813789984750e+001dB,-7.38916789063606e+000°)
1.25892541179416e+002	(-1.15946704051140e+001dB,-7.02814252726288e+000°)
1.28824955169313e+002	(-1.16076194119497e+001dB,-6.66943347047975e+000°)
1.31825673855640e+002	(-1.16202485089441e+001dB,-6.31288329823105e+000°)
1.34896288259165e+002	(-1.16325796454413e+001dB,-5.95833029882575e+000°)
1.38038426460288e+002	(-1.16446342445459e+001dB,-5.60560848988477e+000°)
1.41253754462275e+002	(-1.16564332173228e+001dB,-5.25454762017411e+000°)
1.44543977074592e+002	(-1.16679969766966e+001dB,-4.90497315435027e+000°)
1.47910838816820e+002	(-1.16793454509290e+001dB,-4.55670624063049e+000°)
1.51356124843620e+002	(-1.16904980965589e+001dB,-4.20956366137985e+000°)
1.54881661891248e+002	(-1.17014739106879e+001dB,-3.86335776658305e+000°)
1.58489319246111e+002	(-1.17122914424973e+001dB,-3.51789639013705e+000°)
1.62181009735892e+002	(-1.17229688038820e+001dB,-3.17298274886658e+000°)
1.65958690743755e+002	(-1.17335236790867e+001dB,-2.82841532412333e+000°)
1.69824365246174e+002	(-1.17439733332240e+001dB,-2.48398772578445e+000°)
1.73780082874937e+002	(-1.17543346195567e+001dB,-2.13948853841615e+000°)
1.77827941003892e+002	(-1.17646239854139e+001dB,-1.79470114931279e+000°)
1.81970085860998e+002	(-1.17748574766113e+001dB,-1.44940355806307e+000°)
1.86208713666286e+002	(-1.17850507402314e+001dB,-1.10336816723111e+000°)
1.90546071796324e+002	(-1.17952190256133e+001dB,-7.56361553672780e-001°)
1.94984459975804e+002	(-1.18053771833855e+001dB,-4.08144219937706e-001°)
1.99526231496887e+002	(-1.18155396623632e+001dB,-5.84703251329342e-002°)
2.04173794466952e+002	(-1.18257205041091e+001dB,2.92912605449711e-001°)
2.08929613085403e+002	(-1.18359333349403e+001dB,6.46263992717228e-001°)
2.13796208950222e+002	(-1.18461913551350e+001dB,1.00185053901879e+000°)
2.18776162394954e+002	(-1.18565073250657e+001dB,1.35994658717185e+000°)
2.23872113856833e+002	(-1.18668935479543e+001dB,1.72083450426062e+000°)
2.29086765276776e+002	(-1.18773618489032e+001dB,2.08480509126058e+000°)
2.34422881531991e+002	(-1.18879235498191e+001dB,2.45215801959182e+000°)
2.39883291901948e+002	(-1.18985894397924e+001dB,2.82320229574605e+000°)
2.45470891568502e+002	(-1.19093697404475e+001dB,3.19825675515070e+000°)
2.51188643150957e+002	(-1.19202740657137e+001dB,3.57765058643583e+000°)
2.57039578276885e+002	(-1.19313113754023e+001dB,3.96172388723968e+000°)
2.63026799189537e+002	(-1.19424899218998e+001dB,4.35082825262923e+000°)
2.69153480392690e+002	(-1.19538171892066e+001dB,4.74532739710784e+000°)
2.75422870333816e+002	(-1.19652998234567e+001dB,5.14559781103068e+000°)
2.81838293126444e+002	(-1.19769435539596e+001dB,5.55202945203768e+000°)
2.88403150312659e+002	(-1.19887531036939e+001dB,5.96502647183116e+000°)
2.95120922666637e+002	(-1.20007320880676e+001dB,6.38500797826208e+000°)
3.01995172040200e+002	(-1.20128829006329e+001dB,6.81240883222736e+000°)
3.09029543251358e+002	(-1.20252065843083e+001dB,7.24768047830578e+000°)
3.16227766016837e+002	(-1.20377026865173e+001dB,7.69129180735465e+000°)
3.23593656929627e+002	(-1.20503690964970e+001dB,8.14373004843011e+000°)
3.31131121482590e+002	(-1.20632018628747e+001dB,8.60550168635977e+000°)
3.38844156139201e+002	(-1.20761949894378e+001dB,9.07713340005982e+000°)
3.46736850452530e+002	(-1.20893402068526e+001dB,9.55917301521860e+000°)
3.54813389233574e+002	(-1.21026267179133e+001dB,1.00521904632350e+001°)
3.63078054770100e+002	(-1.21160409137267e+001dB,1.05567787362642e+001°)
3.71535229097171e+002	(-1.21295660580682e+001dB,1.10735548258439e+001°)
3.80189396320559e+002	(-1.21431819369858e+001dB,1.16031606298094e+001°)
3.89045144994279e+002	(-1.21568644705852e+001dB,1.21462638090079e+001°)
3.98107170553495e+002	(-1.21705852838109e+001dB,1.27035585716383e+001°)
4.07380277804111e+002	(-1.21843112329584e+001dB,1.32757663588249e+001°)
4.16869383470333e+002	(-1.21980038846204e+001dB,1.38636364002277e+001°)
4.26579518801591e+002	(-1.22116189438073e+001dB,1.44679461030432e+001°)
4.36515832240164e+002	(-1.22251056281048e+001dB,1.50895012316255e+001°)
4.46683592150961e+002	(-1.22384059849676e+001dB,1.57291358281074e+001°)
4.57088189614873e+002	(-1.22514541496279e+001dB,1.63877118168162e+001°)
4.67735141287196e+002	(-1.22641755416483e+001dB,1.70661182269600e+001°)
4.78630092322636e+002	(-1.22764859989280e+001dB,1.77652699590429e+001°)
4.89778819368444e+002	(-1.22882908490045e+001dB,1.84861060108357e+001°)
5.01187233627270e+002	(-1.22994839188531e+001dB,1.92295870686261e+001°)
5.12861383991362e+002	(-1.23099464861216e+001dB,1.99966923591295e+001°)
5.24807460249770e+002	(-1.23195461769128e+001dB,2.07884156471704e+001°)
5.37031796370250e+002	(-1.23281358179120e+001dB,2.16057602545188e+001°)
5.49540873857622e+002	(-1.23355522539148e+001dB,2.24497329666720e+001°)
5.62341325190346e+002	(-1.23416151457008e+001dB,2.33213366877201e+001°)
5.75439937337154e+002	(-1.23461257677706e+001dB,2.42215616997047e+001°)
5.88843655355586e+002	(-1.23488658307484e+001dB,2.51513753833222e+001°)
6.02559586074355e+002	(-1.23495963592344e+001dB,2.61117102629015e+001°)
6.16595001861479e+002	(-1.23480566625281e+001dB,2.71034502520226e+001°)
6.30957344480190e+002	(-1.23439634428141e+001dB,2.81274149988615e+001°)
6.45654229034652e+002	(-1.23370100928971e+001dB,2.91843422644279e+001°)
6.60693448007592e+002	(-1.23268662431039e+001dB,3.02748683143984e+001°)
6.76082975391978e+002	(-1.23131776240875e+001dB,3.13995063682134e+001°)
6.91830970918933e+002	(-1.22955663184173e+001dB,3.25586232290742e+001°)
7.07945784384134e+002	(-1.22736314782963e+001dB,3.37524143163142e+001°)
7.24435960074986e+002	(-1.22469505886572e+001dB,3.49808774371223e+001°)
7.41310241300914e+002	(-1.22150813532869e+001dB,3.62437857659840e+001°)
7.58577575029180e+002	(-1.21775642754761e+001dB,3.75406606437532e+001°)
7.76247116628688e+002	(-1.21339259929919e+001dB,3.88707449577878e+001°)
7.94328234724277e+002	(-1.20836834090573e+001dB,4.02329780112486e+001°)
8.12830516164095e+002	(-1.20263486359306e+001dB,4.16259729218886e+001°)
8.31763771102666e+002	(-1.19614347355090e+001dB,4.30479976944698e+001°)
8.51138038202372e+002	(-1.18884622026891e+001dB,4.44969611707279e+001°)
8.70963589956076e+002	(-1.18069660933401e+001dB,4.59704050606388e+001°)
8.91250938133741e+002	(-1.17165036519287e+001dB,4.74655031842130e+001°)
9.12010839355905e+002	(-1.16166622471794e+001dB,4.89790688934860e+001°)
9.33254300796986e+002	(-1.15070673815170e+001dB,5.05075713952289e+001°)
9.54992586021431e+002	(-1.13873905056956e+001dB,5.20471613598587e+001°)
9.77237220955805e+002	(-1.12573563482436e+001dB,5.35937057944735e+001°)
9.99999999999994e+002	(-1.11167494638661e+001dB,5.51428317012621e+001°)
1.02329299228075e+003	(-1.09654197183081e+001dB,5.66899775689515e+001°)
1.04712854805089e+003	(-1.08032864603181e+001dB,5.82304512927286e+001°)
1.07151930523760e+003	(-1.06303411831822e+001dB,5.97594927273760e+001°)
1.09647819614318e+003	(-1.04466485456750e+001dB,6.12723387862915e+001°)
1.12201845430196e+003	(-1.02523457002331e+001dB,6.27642888346183e+001°)
1.14815362149688e+003	(-1.00476399584193e+001dB,6.42307681046540e+001°)
1.17489755493952e+003	(-9.83280490351700e+000dB,6.56673869880843e+001°)
1.20226443461741e+003	(-9.60817513087543e+000dB,6.70699943194241e+001°)
1.23026877081237e+003	(-9.37413985304162e+000dB,6.84347231322912e+001°)
1.25892541179416e+003	(-9.13113564508198e+000dB,6.97580278093825e+001°)
1.28824955169313e+003	(-8.87963862419066e+000dB,7.10367120184299e+001°)
1.31825673855640e+003	(-8.62015635710031e+000dB,7.22679472907505e+001°)
1.34896288259165e+003	(-8.35321977112944e+000dB,7.34492825221081e+001°)
1.38038426460288e+003	(-8.07937531338347e+000dB,7.45786450315478e+001°)
1.41253754462275e+003	(-7.79917756185108e+000dB,7.56543340865501e+001°)
1.44543977074592e+003	(-7.51318244623385e+000dB,7.66750079861057e+001°)
1.47910838816820e+003	(-7.22194118931159e+000dB,7.76396658896729e+001°)
1.51356124843620e+003	(-6.92599503480932e+000dB,7.85476255987111e+001°)
1.54881661891247e+003	(-6.62587078756855e+000dB,7.93984984522345e+001°)
1.58489319246110e+003	(-6.32207715791334e+000dB,8.01921624043082e+001°)
1.62181009735892e+003	(-6.01510187519066e+000dB,8.09287342254715e+001°)
1.65958690743755e+003	(-5.70540951560989e+000dB,8.16085416262324e+001°)
1.69824365246173e+003	(-5.39343997625217e+000dB,8.22320959513015e+001°)
1.73780082874936e+003	(-5.07960751966486e+000dB,8.28000659477074e+001°)
1.77827941003891e+003	(-4.76430031081995e+000dB,8.33132529752266e+001°)
1.81970085860997e+003	(-4.44788036936303e+000dB,8.37725679080098e+001°)
1.86208713666286e+003	(-4.13068386401910e+000dB,8.41790098741616e+001°)
1.90546071796323e+003	(-3.81302168186084e+000dB,8.45336468958878e+001°)
1.94984459975803e+003	(-3.49518021212936e+000dB,8.48375984260635e+001°)
1.99526231496887e+003	(-3.17742229181716e+000dB,8.50920197262448e+001°)
2.04173794466952e+003	(-2.85998826781225e+000dB,8.52980879943671e+001°)
2.08929613085403e+003	(-2.54309713772276e+000dB,8.54569901255490e+001°)
2.13796208950222e+003	(-2.22694773832648e+000dB,8.55699119744408e+001°)
2.18776162394954e+003	(-1.91171995678156e+000dB,8.56380289804571e+001°)
2.23872113856832e+003	(-1.59757594522480e+000dB,8.56624980162111e+001°)
2.29086765276776e+003	(-1.28466132415770e+000dB,8.56444503229938e+001°)
2.34422881531991e+003	(-9.73106364097528e-001dB,8.55849854039027e+001°)
2.39883291901947e+003	(-6.63027138396295e-001dB,8.54851657541662e+001°)
2.45470891568501e+003	(-3.54526642964759e-001dB,8.53460123184910e+001°)
2.51188643150956e+003	(-4.76958809467178e-002dB,8.51685005762200e+001°)
2.57039578276885e+003	(2.57385087760122e-001dB,8.49535571662598e+001°)
2.63026799189536e+003	(5.60646130779438e-001dB,8.47020569747581e+001°)
2.69153480392690e+003	(8.62026058839563e-001dB,8.44148206191564e+001°)
2.75422870333815e+003	(1.16147166931688e+000dB,8.40926122723694e+001°)
2.81838293126443e+003	(1.45893681375456e+000dB,8.37361377803714e+001°)
2.88403150312659e+003	(1.75438148491448e+000dB,8.33460430353929e+001°)
2.95120922666636e+003	(2.04777091860529e+000dB,8.29229125752620e+001°)
3.01995172040199e+003	(2.33907470532721e+000dB,8.24672683872329e+001°)
3.09029543251357e+003	(2.62826590666120e+000dB,8.19795689019942e+001°)
3.16227766016836e+003	(2.91532017128792e+000dB,8.14602081705484e+001°)
3.23593656929626e+003	(3.20021484553820e+000dB,8.09095152233963e+001°)
3.31131121482589e+003	(3.48292807344497e+000dB,8.03277536180670e+001°)
3.38844156139200e+003	(3.76343788138482e+000dB,7.97151211876108e+001°)
3.46736850452529e+003	(4.04172124256904e+000dB,7.90717500093348e+001°)
3.54813389233573e+003	(4.31775311687811e+000dB,7.83977066199180e+001°)
3.63078054770099e+003	(4.59150546184433e+000dB,7.76929925101860e+001°)
3.71535229097170e+003	(4.86294621099437e+000dB,7.69575449403423e+001°)
3.80189396320558e+003	(5.13203821629249e+000dB,7.61912381244069e+001°)
3.89045144994278e+003	(5.39873815210816e+000dB,7.53938848410340e+001°)
3.98107170553494e+003	(5.66299537900583e+000dB,7.45652385367692e+001°)
4.07380277804110e+003	(5.92475076676515e+000dB,7.37049959971117e+001°)
4.16869383470332e+003	(6.18393547743543e+000dB,7.28128006703479e+001°)
4.26579518801589e+003	(6.44046971096561e+000dB,7.18882467388336e+001°)
4.36515832240162e+003	(6.69426141808902e+000dB,7.09308840419134e+001°)
4.46683592150960e+003	(6.94520498774246e+000dB,6.99402239635779e+001°)
4.57088189614871e+003	(7.19317991942237e+000dB,6.89157464056908e+001°)
4.67735141287194e+003	(7.43804949458128e+000dB,6.78569079734457e+001°)
4.78630092322634e+003	(7.67965946548813e+000dB,6.67631515027079e+001°)
4.89778819368442e+003	(7.91783678493848e+000dB,6.56339170579061e+001°)
5.01187233627268e+003	(8.15238840579592e+000dB,6.44686545228251e+001°)
5.12861383991361e+003	(8.38310018552097e+000dB,6.32668378934094e+001°)
5.24807460249768e+003	(8.60973593748327e+000dB,6.20279813597824e+001°)
5.37031796370248e+003	(8.83203667776923e+000dB,6.07516572322260e+001°)
5.49540873857620e+003	(9.04972012309963e+000dB,5.94375157209548e+001°)
