Freq.	V(vout3)
1.00000000000000e+001	(-8.77071194103499e+000dB,1.29944343662338e+002°)
1.02329299228075e+001	(-8.92989561298720e+000dB,1.29949465626156e+002°)
1.04712854805090e+001	(-9.08929948044149e+000dB,1.29970709516451e+002°)
1.07151930523761e+001	(-9.24886176060705e+000dB,1.30008143916247e+002°)
1.09647819614319e+001	(-9.40852059270895e+000dB,1.30061829302717e+002°)
1.12201845430196e+001	(-9.56821404662417e+000dB,1.30131818116230e+002°)
1.14815362149688e+001	(-9.72788013061591e+000dB,1.30218154809337e+002°)
1.17489755493953e+001	(-9.88745679856440e+000dB,1.30320875875356e+002°)
1.20226443461741e+001	(-1.00468819570952e+001dB,1.30440009856418e+002°)
1.23026877081238e+001	(-1.02060934730055e+001dB,1.30575577331113e+002°)
1.25892541179417e+001	(-1.03650291813860e+001dB,1.30727590882085e+002°)
1.28824955169313e+001	(-1.05236268948307e+001dB,1.30896055044214e+002°)
1.31825673855641e+001	(-1.06818244141194e+001dB,1.31080966234205e+002°)
1.34896288259165e+001	(-1.08395595407459e+001dB,1.31282312662695e+002°)
1.38038426460288e+001	(-1.09967700916523e+001dB,1.31500074230204e+002°)
1.41253754462275e+001	(-1.11533939165144e+001dB,1.31734222408473e+002°)
1.44543977074593e+001	(-1.13093689179017e+001dB,1.31984720108998e+002°)
1.47910838816821e+001	(-1.14646330746157e+001dB,1.32251521540767e+002°)
1.51356124843621e+001	(-1.16191244684849e+001dB,1.32534572059414e+002°)
1.54881661891248e+001	(-1.17727813148638e+001dB,1.32833808010242e+002°)
1.58489319246111e+001	(-1.19255419970554e+001dB,1.33149156567741e+002°)
1.62181009735893e+001	(-1.20773451048397e+001dB,1.33480535574402e+002°)
1.65958690743756e+001	(-1.22281294772529e+001dB,1.33827853381833e+002°)
1.69824365246174e+001	(-1.23778342497210e+001dB,1.34191008697282e+002°)
1.73780082874937e+001	(-1.25263989056071e+001dB,1.34569890438851e+002°)
1.77827941003892e+001	(-1.26737633321850e+001dB,1.34964377602754e+002°)
1.81970085860998e+001	(-1.28198678809993e+001dB,1.35374339146072e+002°)
1.86208713666287e+001	(-1.29646534325235e+001dB,1.35799633888502e+002°)
1.90546071796325e+001	(-1.31080614649691e+001dB,1.36240110436615e+002°)
1.94984459975804e+001	(-1.32500341270436e+001dB,1.36695607134118e+002°)
1.99526231496888e+001	(-1.33905143143986e+001dB,1.37165952041573e+002°)
2.04173794466953e+001	(-1.35294457494502e+001dB,1.37650962948911e+002°)
2.08929613085404e+001	(-1.36667730641934e+001dB,1.38150447423960e+002°)
2.13796208950223e+001	(-1.38024418855787e+001dB,1.38664202900019e+002°)
2.18776162394955e+001	(-1.39363989229592e+001dB,1.39192016805277e+002°)
2.23872113856834e+001	(-1.40685920570651e+001dB,1.39733666736629e+002°)
2.29086765276777e+001	(-1.41989704299097e+001dB,1.40288920680092e+002°)
2.34422881531992e+001	(-1.43274845349867e+001dB,1.40857537279714e+002°)
2.39883291901949e+001	(-1.44540863070758e+001dB,1.41439266156416e+002°)
2.45470891568503e+001	(-1.45787292109367e+001dB,1.42033848277828e+002°)
2.51188643150958e+001	(-1.47013683281462e+001dB,1.42641016379656e+002°)
2.57039578276886e+001	(-1.48219604413069e+001dB,1.43260495438670e+002°)
2.63026799189538e+001	(-1.49404641148466e+001dB,1.43892003196827e+002°)
2.69153480392691e+001	(-1.50568397716206e+001dB,1.44535250735556e+002°)
2.75422870333816e+001	(-1.51710497645350e+001dB,1.45189943098627e+002°)
2.81838293126445e+001	(-1.52830584424230e+001dB,1.45855779961525e+002°)
2.88403150312660e+001	(-1.53928322094303e+001dB,1.46532456344655e+002°)
2.95120922666638e+001	(-1.55003395771998e+001dB,1.47219663367205e+002°)
3.01995172040201e+001	(-1.56055512091895e+001dB,1.47917089037964e+002°)
3.09029543251359e+001	(-1.57084399565094e+001dB,1.48624419078905e+002°)
3.16227766016838e+001	(-1.58089808847250e+001dB,1.49341337776921e+002°)
3.23593656929628e+001	(-1.59071512911455e+001dB,1.50067528858679e+002°)
3.31131121482591e+001	(-1.60029307121880e+001dB,1.50802676383241e+002°)
3.38844156139202e+001	(-1.60963009204952e+001dB,1.51546465646776e+002°)
3.46736850452531e+001	(-1.61872459115666e+001dB,1.52298584093521e+002°)
3.54813389233575e+001	(-1.62757518797588e+001dB,1.53058722226930e+002°)
3.63078054770101e+001	(-1.63618071835982e+001dB,1.53826574514924e+002°)
3.71535229097172e+001	(-1.64454023004446e+001dB,1.54601840283106e+002°)
3.80189396320561e+001	(-1.65265297706390e+001dB,1.55384224589873e+002°)
3.89045144994280e+001	(-1.66051841313538e+001dB,1.56173439077496e+002°)
3.98107170553497e+001	(-1.66813618404561e+001dB,1.56969202793413e+002°)
4.07380277804112e+001	(-1.67550611907728e+001dB,1.57771242976252e+002°)
4.16869383470335e+001	(-1.68262822152257e+001dB,1.58579295801409e+002°)
4.26579518801592e+001	(-1.68950265833696e+001dB,1.59393107081365e+002°)
4.36515832240165e+001	(-1.69612974899347e+001dB,1.60212432916355e+002°)
4.46683592150962e+001	(-1.70250995360199e+001dB,1.61037040291412e+002°)
4.57088189614874e+001	(-1.70864386036357e+001dB,1.61866707616312e+002°)
4.67735141287197e+001	(-1.71453217243238e+001dB,1.62701225205422e+002°)
4.78630092322638e+001	(-1.72017569426121e+001dB,1.63540395694961e+002°)
4.89778819368445e+001	(-1.72557531750761e+001dB,1.64384034395690e+002°)
5.01187233627271e+001	(-1.73073200657888e+001dB,1.65231969579547e+002°)
5.12861383991364e+001	(-1.73564678389387e+001dB,1.66084042699226e+002°)
5.24807460249772e+001	(-1.74032071493865e+001dB,1.66940108540189e+002°)
5.37031796370252e+001	(-1.74475489319177e+001dB,1.67800035305022e+002°)
5.49540873857624e+001	(-1.74895042499223e+001dB,1.68663704630487e+002°)
5.62341325190348e+001	(-1.75290841442075e+001dB,1.69531011537972e+002°)
5.75439937337156e+001	(-1.75662994826153e+001dB,1.70401864318424e+002°)
5.88843655355588e+001	(-1.76011608110786e+001dB,1.71276184353126e+002°)
6.02559586074357e+001	(-1.76336782067130e+001dB,1.72153905871970e+002°)
6.16595001861481e+001	(-1.76638611334965e+001dB,1.73034975651060e+002°)
6.30957344480192e+001	(-1.76917183010471e+001dB,1.73919352651721e+002°)
6.45654229034654e+001	(-1.77172575269670e+001dB,1.74807007603084e+002°)
6.60693448007595e+001	(-1.77404856031763e+001dB,1.75697922530540e+002°)
6.76082975391980e+001	(-1.77614081666195e+001dB,1.76592090232433e+002°)
6.91830970918935e+001	(-1.77800295746884e+001dB,1.77489513707375e+002°)
7.07945784384136e+001	(-1.77963527856657e+001dB,1.78390205534611e+002°)
7.24435960074988e+001	(-1.78103792444606e+001dB,1.79294187209794e+002°)
7.41310241300916e+001	(-1.78221087738774e+001dB,-1.79798511561469e+002°)
7.58577575029182e+001	(-1.78315394716248e+001dB,-1.78887853610017e+002°)
7.76247116628690e+001	(-1.78386676132579e+001dB,-1.77973795087280e+002°)
7.94328234724279e+001	(-1.78434875612147e+001dB,-1.77056286285035e+002°)
8.12830516164097e+001	(-1.78459916800996e+001dB,-1.76135272488737e+002°)
8.31763771102669e+001	(-1.78461702583501e+001dB,-1.75210694862489e+002°)
8.51138038202374e+001	(-1.78440114364128e+001dB,-1.74282491363788e+002°)
8.70963589956078e+001	(-1.78395011415504e+001dB,-1.73350597686296e+002°)
8.91250938133743e+001	(-1.78326230293983e+001dB,-1.72414948228941e+002°)
9.12010839355907e+001	(-1.78233584323883e+001dB,-1.71475477089740e+002°)
9.33254300796988e+001	(-1.78116863151614e+001dB,-1.70532119082769e+002°)
9.54992586021433e+001	(-1.77975832370940e+001dB,-1.69584810776773e+002°)
9.77237220955808e+001	(-1.77810233220714e+001dB,-1.68633491553906e+002°)
9.99999999999997e+001	(-1.77619782356477e+001dB,-1.67678104687097e+002°)
1.02329299228075e+002	(-1.77404171697413e+001dB,-1.66718598434539e+002°)
1.04712854805090e+002	(-1.77163068350243e+001dB,-1.65754927149728e+002°)
1.07151930523760e+002	(-1.76896114611716e+001dB,-1.64787052405438e+002°)
1.09647819614318e+002	(-1.76602928051461e+001dB,-1.63814944129934e+002°)
1.12201845430196e+002	(-1.76283101677006e+001dB,-1.62838581753600e+002°)
1.14815362149688e+002	(-1.75936204182834e+001dB,-1.61857955364046e+002°)
1.17489755493953e+002	(-1.75561780285378e+001dB,-1.60873066867631e+002°)
1.20226443461741e+002	(-1.75159351145848e+001dB,-1.59883931155117e+002°)
1.23026877081238e+002	(-1.74728414882746e+001dB,-1.58890577269048e+002°)
1.25892541179416e+002	(-1.74268447175864e+001dB,-1.57893049570225e+002°)
1.28824955169313e+002	(-1.73778901963427e+001dB,-1.56891408900432e+002°)
1.31825673855640e+002	(-1.73259212233896e+001dB,-1.55885733738387e+002°)
1.34896288259165e+002	(-1.72708790913714e+001dB,-1.54876121345642e+002°)
1.38038426460288e+002	(-1.72127031852021e+001dB,-1.53862688898972e+002°)
1.41253754462275e+002	(-1.71513310903040e+001dB,-1.52845574605565e+002°)
1.44543977074592e+002	(-1.70866987106432e+001dB,-1.51824938797135e+002°)
1.47910838816820e+002	(-1.70187403965507e+001dB,-1.50800964998905e+002°)
1.51356124843620e+002	(-1.69473890822643e+001dB,-1.49773860969258e+002°)
1.54881661891248e+002	(-1.68725764330738e+001dB,-1.48743859705699e+002°)
1.58489319246111e+002	(-1.67942330018875e+001dB,-1.47711220412714e+002°)
1.62181009735892e+002	(-1.67122883949758e+001dB,-1.46676229427062e+002°)
1.65958690743755e+002	(-1.66266714465722e+001dB,-1.45639201096005e+002°)
1.69824365246174e+002	(-1.65373104019418e+001dB,-1.44600478604073e+002°)
1.73780082874937e+002	(-1.64441331084472e+001dB,-1.43560434744067e+002°)
1.77827941003892e+002	(-1.63470672140628e+001dB,-1.42519472628172e+002°)
1.81970085860998e+002	(-1.62460403727109e+001dB,-1.41478026335344e+002°)
1.86208713666286e+002	(-1.61409804557072e+001dB,-1.40436561491416e+002°)
1.90546071796324e+002	(-1.60318157685350e+001dB,-1.39395575778839e+002°)
1.94984459975804e+002	(-1.59184752720817e+001dB,-1.38355599373415e+002°)
1.99526231496887e+002	(-1.58008888074127e+001dB,-1.37317195305991e+002°)
2.04173794466952e+002	(-1.56789873230882e+001dB,-1.36280959747739e+002°)
2.08929613085403e+002	(-1.55527031039798e+001dB,-1.35247522218382e+002°)
2.13796208950222e+002	(-1.54219700004947e+001dB,-1.34217545717549e+002°)
2.18776162394954e+002	(-1.52867236570942e+001dB,-1.33191726780378e+002°)
2.23872113856833e+002	(-1.51469017389664e+001dB,-1.32170795459402e+002°)
2.29086765276776e+002	(-1.50024441557214e+001dB,-1.31155515235844e+002°)
2.34422881531991e+002	(-1.48532932809901e+001dB,-1.30146682864495e+002°)
2.39883291901948e+002	(-1.46993941668495e+001dB,-1.29145128157532e+002°)
2.45470891568502e+002	(-1.45406947520515e+001dB,-1.28151713713748e+002°)
2.51188643150957e+002	(-1.43771460631187e+001dB,-1.27167334600921e+002°)
2.57039578276885e+002	(-1.42087024074726e+001dB,-1.26192918000200e+002°)
2.63026799189537e+002	(-1.40353215578947e+001dB,-1.25229422822642e+002°)
2.69153480392690e+002	(-1.38569649277712e+001dB,-1.24277839309136e+002°)
2.75422870333816e+002	(-1.36735977367692e+001dB,-1.23339188626198e+002°)
2.81838293126444e+002	(-1.34851891667895e+001dB,-1.22414522471105e+002°)
2.88403150312659e+002	(-1.32917125082970e+001dB,-1.21504922700971e+002°)
2.95120922666637e+002	(-1.30931452973932e+001dB,-1.20611501001236e+002°)
3.01995172040200e+002	(-1.28894694443028e+001dB,-1.19735398609935e+002°)
3.09029543251358e+002	(-1.26806713542772e+001dB,-1.18877786114843e+002°)
3.16227766016837e+002	(-1.24667420422875e+001dB,-1.18039863341178e+002°)
3.23593656929627e+002	(-1.22476772432807e+001dB,-1.17222859348020e+002°)
3.31131121482590e+002	(-1.20234775202124e+001dB,-1.16428032551885e+002°)
3.38844156139201e+002	(-1.17941483725405e+001dB,-1.15656670995952e+002°)
3.46736850452530e+002	(-1.15597003483900e+001dB,-1.14910092783358e+002°)
3.54813389233574e+002	(-1.13201491641528e+001dB,-1.14189646692550e+002°)
3.63078054770100e+002	(-1.10755158359057e+001dB,-1.13496712992027e+002°)
3.71535229097171e+002	(-1.08258268276859e+001dB,-1.12832704470800e+002°)
3.80189396320559e+002	(-1.05711142223920e+001dB,-1.12199067699455e+002°)
3.89045144994279e+002	(-1.03114159218616e+001dB,-1.11597284534837e+002°)
3.98107170553495e+002	(-1.00467758835427e+001dB,-1.11028873878937e+002°)
4.07380277804111e+002	(-9.77724440209978e+000dB,-1.10495393699376e+002°)
4.16869383470333e+002	(-9.50287844533512e+000dB,-1.09998443314972e+002°)
4.26579518801591e+002	(-9.22374205489408e+000dB,-1.09539665944833e+002°)
4.36515832240164e+002	(-8.93990682345473e+000dB,-1.09120751513272e+002°)
4.46683592150961e+002	(-8.65145246138050e+000dB,-1.08743439695078e+002°)
4.57088189614873e+002	(-8.35846746722514e+000dB,-1.08409523176140e+002°)
4.67735141287196e+002	(-8.06104991794973e+000dB,-1.08120851092653e+002°)
4.78630092322636e+002	(-7.75930839625321e+000dB,-1.07879332597623e+002°)
4.89778819368444e+002	(-7.45336307399807e+000dB,-1.07686940485677e+002°)
5.01187233627270e+002	(-7.14334697225936e+000dB,-1.07545714785488e+002°)
5.12861383991362e+002	(-6.82940741999064e+000dB,-1.07457766202870e+002°)
5.24807460249770e+002	(-6.51170773455709e+000dB,-1.07425279265813e+002°)
5.37031796370250e+002	(-6.19042914829091e+000dB,-1.07450514984589e+002°)
5.49540873857622e+002	(-5.86577300555731e+000dB,-1.07535812794665e+002°)
5.62341325190346e+002	(-5.53796325434374e+000dB,-1.07683591496514e+002°)
5.75439937337154e+002	(-5.20724925468094e+000dB,-1.07896348843803e+002°)
5.88843655355586e+002	(-4.87390892285452e+000dB,-1.08176659359258e+002°)
6.02559586074355e+002	(-4.53825222478549e+000dB,-1.08527169875756e+002°)
6.16595001861479e+002	(-4.20062502336982e+000dB,-1.08950592209433e+002°)
6.30957344480190e+002	(-3.86141327219903e+000dB,-1.09449692273794e+002°)
6.45654229034652e+002	(-3.52104753085229e+000dB,-1.10027274842290e+002°)
6.60693448007592e+002	(-3.18000775379339e+000dB,-1.10686163067477e+002°)
6.76082975391978e+002	(-2.83882827465754e+000dB,-1.11429171776547e+002°)
6.91830970918933e+002	(-2.49810286930122e+000dB,-1.12259073498345e+002°)
7.07945784384134e+002	(-2.15848973357527e+000dB,-1.13178556153760e+002°)
7.24435960074986e+002	(-1.82071615513596e+000dB,-1.14190171382193e+002°)
7.41310241300914e+002	(-1.48558259335022e+000dB,-1.15296272610459e+002°)
7.58577575029180e+002	(-1.15396580961553e+000dB,-1.16498942230183e+002°)
7.76247116628688e+002	(-8.26820616318990e-001dB,-1.17799907671705e+002°)
7.94328234724277e+002	(-5.05179742960134e-001dB,-1.19200446781604e+002°)
8.12830516164095e+002	(-1.90151262600550e-001dB,-1.20701283753445e+002°)
8.31763771102666e+002	(1.17087006026679e-001dB,-1.22302477936280e+002°)
8.51138038202372e+002	(4.15296689576495e-001dB,-1.24003309130633e+002°)
8.70963589956076e+002	(7.03192136001822e-001dB,-1.25802164411453e+002°)
8.91250938133741e+002	(9.79458112046668e-001dB,-1.27696432970027e+002°)
9.12010839355905e+002	(1.24277201481401e+000dB,-1.29682416757999e+002°)
9.33254300796986e+002	(1.49183035500407e+000dB,-1.31755265607590e+002°)
9.54992586021431e+002	(1.72537885776440e+000dB,-1.33908945721872e+002°)
9.77237220955805e+002	(1.94224507178200e+000dB,-1.36136249720953e+002°)
9.99999999999994e+002	(2.14137193124083e+000dB,-1.38428854613203e+002°)
1.02329299228075e+003	(2.32185034693710e+000dB,-1.40777431100958e+002°)
1.04712854805089e+003	(2.48294868565443e+000dB,-1.43171803695722e+002°)
1.07151930523760e+003	(2.62413699404112e+000dB,-1.45601156601841e+002°)
1.09647819614318e+003	(2.74510407054798e+000dB,-1.48054275811378e+002°)
1.12201845430196e+003	(2.84576598138256e+000dB,-1.50519814013929e+002°)
1.14815362149688e+003	(2.92626530254817e+000dB,-1.52986562394796e+002°)
1.17489755493952e+003	(2.98696115890446e+000dB,-1.55443712614220e+002°)
1.20226443461741e+003	(3.02841090984646e+000dB,-1.57881093368610e+002°)
1.23026877081237e+003	(3.05134498889881e+000dB,-1.60289368734473e+002°)
1.25892541179416e+003	(3.05663685625713e+000dB,-1.62660189503382e+002°)
1.28824955169313e+003	(3.04527022572180e+000dB,-1.64986293280799e+002°)
1.31825673855640e+003	(3.01830568332100e+000dB,-1.67261553573699e+002°)
1.34896288259165e+003	(2.97684856603575e+000dB,-1.69480981877649e+002°)
1.38038426460288e+003	(2.92201958165118e+000dB,-1.71640689539120e+002°)
1.41253754462275e+003	(2.85492919842670e+000dB,-1.73737817783657e+002°)
1.44543977074592e+003	(2.77665638226780e+000dB,-1.75770444829475e+002°)
1.47910838816820e+003	(2.68823185900996e+000dB,-1.77737478648955e+002°)
1.51356124843620e+003	(2.59062575986217e+000dB,-1.79638542960098e+002°)
1.54881661891247e+003	(2.48473927987210e+000dB,1.78526137305464e+002°)
1.58489319246110e+003	(2.37139983893899e+000dB,1.76755846271381e+002°)
1.62181009735892e+003	(2.25135916971243e+000dB,1.75049479747586e+002°)
1.65958690743755e+003	(2.12529374972934e+000dB,1.73405638100485e+002°)
1.69824365246173e+003	(1.99380702881918e+000dB,1.71822708274259e+002°)
1.73780082874936e+003	(1.85743296149422e+000dB,1.70298934677801e+002°)
1.77827941003891e+003	(1.71664042506942e+000dB,1.68832479234411e+002°)
1.81970085860997e+003	(1.57183817829892e+000dB,1.67421471282854e+002°)
1.86208713666286e+003	(1.42338008611370e+000dB,1.66064048254082e+002°)
1.90546071796323e+003	(1.27157039986785e+000dB,1.64758388163673e+002°)
1.94984459975803e+003	(1.11666893754585e+000dB,1.63502734988581e+002°)
1.99526231496887e+003	(9.58896054184290e-001dB,1.62295417965628e+002°)
2.04173794466952e+003	(7.98437329709021e-001dB,1.61134865780112e+002°)
2.08929613085403e+003	(6.35447930375628e-001dB,1.60019616522837e+002°)
2.13796208950222e+003	(4.70056622112604e-001dB,1.58948324194483e+002°)
2.18776162394954e+003	(3.02369430477364e-001dB,1.57919762436017e+002°)
2.23872113856832e+003	(1.32472953724823e-001dB,1.56932826067969e+002°)
2.29086765276776e+003	(-3.95626563568091e-002dB,1.55986530933040e+002°)
2.34422881531991e+003	(-2.13681025834353e-001dB,1.55080012457199e+002°)
2.39883291901947e+003	(-3.89837178976390e-001dB,1.54212523274675e+002°)
2.45470891568501e+003	(-5.67995422572825e-001dB,1.53383430201905e+002°)
2.51188643150956e+003	(-7.48127468616984e-001dB,1.52592210793794e+002°)
2.57039578276885e+003	(-9.30210769850453e-001dB,1.51838449671922e+002°)
2.63026799189536e+003	(-1.11422704327238e+000dB,1.51121834777402e+002°)
2.69153480392690e+003	(-1.30016095758974e+000dB,1.50442153670283e+002°)
2.75422870333815e+003	(-1.48799896160818e+000dB,1.49799289971390e+002°)
2.81838293126443e+003	(-1.67772823161049e+000dB,1.49193220020889e+002°)
2.88403150312659e+003	(-1.86933571679535e+000dB,1.48624009809397e+002°)
2.95120922666636e+003	(-2.06280726277377e+000dB,1.48091812221852e+002°)
3.01995172040199e+003	(-2.25812679394358e+000dB,1.47596864620674e+002°)
3.09029543251357e+003	(-2.45527553624443e+000dB,1.47139486782573e+002°)
3.16227766016836e+003	(-2.65423126235314e+000dB,1.46720079192175e+002°)
3.23593656929626e+003	(-2.85496754177527e+000dB,1.46339121684944e+002°)
3.31131121482589e+003	(-3.05745297859735e+000dB,1.45997172421235e+002°)
3.38844156139200e+003	(-3.26165041980878e+000dB,1.45694867162418e+002°)
3.46736850452529e+003	(-3.46751611721787e+000dB,1.45432918808266e+002°)
3.54813389233573e+003	(-3.67499882597526e+000dB,1.45212117142054e+002°)
3.63078054770099e+003	(-3.88403882275003e+000dB,1.45033328715436e+002°)
3.71535229097170e+003	(-4.09456682660472e+000dB,1.44897496788932e+002°)
3.80189396320558e+003	(-4.30650280576328e+000dB,1.44805641225193e+002°)
3.89045144994278e+003	(-4.51975465374308e+000dB,1.44758858210891e+002°)
3.98107170553494e+003	(-4.73421671892318e+000dB,1.44758319658499e+002°)
4.07380277804110e+003	(-4.94976817261102e+000dB,1.44805272111213e+002°)
4.16869383470332e+003	(-5.16627120225914e+000dB,1.44901034942426e+002°)
4.26579518801589e+003	(-5.38356901886138e+000dB,1.45046997605418e+002°)
4.36515832240162e+003	(-5.60148367097504e+000dB,1.45244615649321e+002°)
4.46683592150960e+003	(-5.81981366258695e+000dB,1.45495405174315e+002°)
4.57088189614871e+003	(-6.03833137849050e+000dB,1.45800935353371e+002°)
4.67735141287194e+003	(-6.25678032938611e+000dB,1.46162818600977e+002°)
4.78630092322634e+003	(-6.47487223998191e+000dB,1.46582697923677e+002°)
4.89778819368442e+003	(-6.69228401739728e+000dB,1.47062230946174e+002°)
5.01187233627268e+003	(-6.90865465457258e+000dB,1.47603070075096e+002°)
5.12861383991361e+003	(-7.12358214452911e+000dB,1.48206838246615e+002°)
5.24807460249768e+003	(-7.33662050633875e+000dB,1.48875099712219e+002°)
5.37031796370248e+003	(-7.54727705247486e+000dB,1.49609325359351e+002°)
5.49540873857620e+003	(-7.75501005927997e+000dB,1.50410852152333e+002°)
5.62341325190344e+003	(-7.95922703644173e+000dB,1.51280836427509e+002°)
