Freq.	V(vout3)+V(vout2)+V(vout1)
1.00000000000000e+001	(6.73102760988915e+000dB,1.73216500317033e+002°)
1.02329299228075e+001	(6.71217784893393e+000dB,1.73344039253482e+002°)
1.04712854805090e+001	(6.69390849675623e+000dB,1.73472215114595e+002°)
1.07151930523761e+001	(6.67621209807774e+000dB,1.73600905937183e+002°)
1.09647819614319e+001	(6.65908051893766e+000dB,1.73729995516567e+002°)
1.12201845430196e+001	(6.64250501365002e+000dB,1.73859373481110e+002°)
1.14815362149688e+001	(6.62647628998864e+000dB,1.73988935335805e+002°)
1.17489755493953e+001	(6.61098457232961e+000dB,1.74118582477169e+002°)
1.20226443461741e+001	(6.59601966252426e+000dB,1.74248222181719e+002°)
1.23026877081238e+001	(6.58157099831535e+000dB,1.74377767570313e+002°)
1.25892541179417e+001	(6.56762770914700e+000dB,1.74507137550630e+002°)
1.28824955169313e+001	(6.55417866925524e+000dB,1.74636256740013e+002°)
1.31825673855641e+001	(6.54121254795787e+000dB,1.74765055370863e+002°)
1.34896288259165e+001	(6.52871785709401e+000dB,1.74893469180674e+002°)
1.38038426460288e+001	(6.51668299558985e+000dB,1.75021439288727e+002°)
1.41253754462275e+001	(6.50509629115284e+000dB,1.75148912061378e+002°)
1.44543977074593e+001	(6.49394603911803e+000dB,1.75275838967727e+002°)
1.47910838816821e+001	(6.48322053848970e+000dB,1.75402176427405e+002°)
1.51356124843621e+001	(6.47290812523825e+000dB,1.75527885652042e+002°)
1.54881661891248e+001	(6.46299720292657e+000dB,1.75652932481918e+002°)
1.58489319246111e+001	(6.45347627075219e+000dB,1.75777287219131e+002°)
1.62181009735893e+001	(6.44433394910107e+000dB,1.75900924458544e+002°)
1.65958690743756e+001	(6.43555900271732e+000dB,1.76023822917632e+002°)
1.69824365246174e+001	(6.42714036159865e+000dB,1.76145965266257e+002°)
1.73780082874937e+001	(6.41906713973203e+000dB,1.76267337957271e+002°)
1.77827941003892e+001	(6.41132865178707e+000dB,1.76387931058779e+002°)
1.81970085860998e+001	(6.40391442788578e+000dB,1.76507738088763e+002°)
1.86208713666287e+001	(6.39681422656846e+000dB,1.76626755852692e+002°)
1.90546071796325e+001	(6.39001804607435e+000dB,1.76744984284673e+002°)
1.94984459975804e+001	(6.38351613405433e+000dB,1.76862426292581e+002°)
1.99526231496888e+001	(6.37729899583120e+000dB,1.76979087607565e+002°)
2.04173794466953e+001	(6.37135740131946e+000dB,1.77094976638255e+002°)
2.08929613085404e+001	(6.36568239071408e+000dB,1.77210104329902e+002°)
2.13796208950223e+001	(6.36026527905304e+000dB,1.77324484028672e+002°)
2.18776162394955e+001	(6.35509765975554e+000dB,1.77438131351227e+002°)
2.23872113856834e+001	(6.35017140723218e+000dB,1.77551064059697e+002°)
2.29086765276777e+001	(6.34547867866013e+000dB,1.77663301942099e+002°)
2.34422881531992e+001	(6.34101191501098e+000dB,1.77774866698222e+002°)
2.39883291901949e+001	(6.33676384141460e+000dB,1.77885781830969e+002°)
2.45470891568503e+001	(6.33272746693812e+000dB,1.77996072543116e+002°)
2.51188643150958e+001	(6.32889608385393e+000dB,1.78105765639410e+002°)
2.57039578276886e+001	(6.32526326646658e+000dB,1.78214889433933e+002°)
2.63026799189538e+001	(6.32182286956416e+000dB,1.78323473662615e+002°)
2.69153480392691e+001	(6.31856902655533e+000dB,1.78431549400770e+002°)
2.75422870333816e+001	(6.31549614734916e+000dB,1.78539148985534e+002°)
2.81838293126445e+001	(6.31259891603110e+000dB,1.78646305943034e+002°)
2.88403150312660e+001	(6.30987228838474e+000dB,1.78753054920154e+002°)
2.95120922666638e+001	(6.30731148930538e+000dB,1.78859431620720e+002°)
3.01995172040201e+001	(6.30491201014833e+000dB,1.78965472745946e+002°)
3.09029543251359e+001	(6.30266960605128e+000dB,1.79071215938954e+002°)
3.16227766016838e+001	(6.30058029326790e+000dB,1.79176699733207e+002°)
3.23593656929628e+001	(6.29864034654617e+000dB,1.79281963504676e+002°)
3.31131121482591e+001	(6.29684629658331e+000dB,1.79387047427551e+002°)
3.38844156139202e+001	(6.29519492758605e+000dB,1.79491992433337e+002°)
3.46736850452531e+001	(6.29368327496335e+000dB,1.79596840173141e+002°)
3.54813389233575e+001	(6.29230862317641e+000dB,1.79701632982995e+002°)
3.63078054770101e+001	(6.29106850376906e+000dB,1.79806413852019e+002°)
3.71535229097172e+001	(6.28996069359983e+000dB,1.79911226393269e+002°)
3.80189396320561e+001	(6.28898321329593e+000dB,-1.79983885182897e+002°)
3.89045144994280e+001	(6.28813432594726e+000dB,-1.79878876093121e+002°)
3.98107170553497e+001	(6.28741253605813e+000dB,-1.79773701003149e+002°)
4.07380277804112e+001	(6.28681658877262e+000dB,-1.79668314047924e+002°)
4.16869383470335e+001	(6.28634546938935e+000dB,-1.79562668849817e+002°)
4.26579518801592e+001	(6.28599840317945e+000dB,-1.79456718535139e+002°)
4.36515832240165e+001	(6.28577485552202e+000dB,-1.79350415749115e+002°)
4.46683592150962e+001	(6.28567453236982e+000dB,-1.79243712669446e+002°)
4.57088189614874e+001	(6.28569738105801e+000dB,-1.79136561018622e+002°)
4.67735141287197e+001	(6.28584359146777e+000dB,-1.79028912075130e+002°)
4.78630092322638e+001	(6.28611359755686e+000dB,-1.78920716683710e+002°)
4.89778819368445e+001	(6.28650807926849e+000dB,-1.78811925264794e+002°)
5.01187233627271e+001	(6.28702796482974e+000dB,-1.78702487823286e+002°)
5.12861383991364e+001	(6.28767443345092e+000dB,-1.78592353956820e+002°)
5.24807460249772e+001	(6.28844891843654e+000dB,-1.78481472863645e+002°)
5.37031796370252e+001	(6.28935311071952e+000dB,-1.78369793350291e+002°)
5.49540873857624e+001	(6.29038896282912e+000dB,-1.78257263839149e+002°)
5.62341325190348e+001	(6.29155869330421e+000dB,-1.78143832376129e+002°)
5.75439937337156e+001	(6.29286479156290e+000dB,-1.78029446638546e+002°)
5.88843655355588e+001	(6.29431002323998e+000dB,-1.77914053943386e+002°)
6.02559586074357e+001	(6.29589743600377e+000dB,-1.77797601256109e+002°)
6.16595001861481e+001	(6.29763036586415e+000dB,-1.77680035200172e+002°)
6.30957344480192e+001	(6.29951244398354e+000dB,-1.77561302067406e+002°)
6.45654229034654e+001	(6.30154760400331e+000dB,-1.77441347829458e+002°)
6.60693448007595e+001	(6.30374008989777e+000dB,-1.77320118150452e+002°)
6.76082975391980e+001	(6.30609446436861e+000dB,-1.77197558401070e+002°)
6.91830970918935e+001	(6.30861561779224e+000dB,-1.77073613674241e+002°)
7.07945784384136e+001	(6.31130877773358e+000dB,-1.76948228802652e+002°)
7.24435960074988e+001	(6.31417951903917e+000dB,-1.76821348378276e+002°)
7.41310241300916e+001	(6.31723377452311e+000dB,-1.76692916774160e+002°)
7.58577575029182e+001	(6.32047784625951e+000dB,-1.76562878168698e+002°)
7.76247116628690e+001	(6.32391841749489e+000dB,-1.76431176572629e+002°)
7.94328234724279e+001	(6.32756256519422e+000dB,-1.76297755859037e+002°)
8.12830516164097e+001	(6.33141777323464e+000dB,-1.76162559796608e+002°)
8.31763771102669e+001	(6.33549194625978e+000dB,-1.76025532086446e+002°)
8.51138038202374e+001	(6.33979342420884e+000dB,-1.75886616402746e+002°)
8.70963589956078e+001	(6.34433099753319e+000dB,-1.75745756437645e+002°)
8.91250938133743e+001	(6.34911392311350e+000dB,-1.75602895950605e+002°)
9.12010839355907e+001	(6.35415194088998e+000dB,-1.75457978822663e+002°)
9.33254300796988e+001	(6.35945529121733e+000dB,-1.75310949115959e+002°)
9.54992586021433e+001	(6.36503473295574e+000dB,-1.75161751138926e+002°)
9.77237220955808e+001	(6.37090156230839e+000dB,-1.75010329517571e+002°)
9.99999999999997e+001	(6.37706763241436e+000dB,-1.74856629273316e+002°)
1.02329299228075e+002	(6.38354537370524e+000dB,-1.74700595907858e+002°)
1.04712854805090e+002	(6.39034781503233e+000dB,-1.74542175495570e+002°)
1.07151930523760e+002	(6.39748860556869e+000dB,-1.74381314783974e+002°)
1.09647819614318e+002	(6.40498203748986e+000dB,-1.74217961302866e+002°)
1.12201845430196e+002	(6.41284306943371e+000dB,-1.74052063482675e+002°)
1.14815362149688e+002	(6.42108735073798e+000dB,-1.73883570782724e+002°)
1.17489755493953e+002	(6.42973124645076e+000dB,-1.73712433830035e+002°)
1.20226443461741e+002	(6.43879186310674e+000dB,-1.73538604569426e+002°)
1.23026877081238e+002	(6.44828707525772e+000dB,-1.73362036425620e+002°)
1.25892541179416e+002	(6.45823555274208e+000dB,-1.73182684478197e+002°)
1.28824955169313e+002	(6.46865678867352e+000dB,-1.73000505650201e+002°)
1.31825673855640e+002	(6.47957112812466e+000dB,-1.72815458911318e+002°)
1.34896288259165e+002	(6.49099979747445e+000dB,-1.72627505496543e+002°)
1.38038426460288e+002	(6.50296493438371e+000dB,-1.72436609141340e+002°)
1.41253754462275e+002	(6.51548961835497e+000dB,-1.72242736334326e+002°)
1.44543977074592e+002	(6.52859790182578e+000dB,-1.72045856588595e+002°)
1.47910838816820e+002	(6.54231484173661e+000dB,-1.71845942732817e+002°)
1.51356124843620e+002	(6.55666653150479e+000dB,-1.71642971223360e+002°)
1.54881661891248e+002	(6.57168013332607e+000dB,-1.71436922478682e+002°)
1.58489319246111e+002	(6.58738391071456e+000dB,-1.71227781237372e+002°)
1.62181009735892e+002	(6.60380726117925e+000dB,-1.71015536941233e+002°)
1.65958690743755e+002	(6.62098074892270e+000dB,-1.70800184144908e+002°)
1.69824365246174e+002	(6.63893613743190e+000dB,-1.70581722953593e+002°)
1.73780082874937e+002	(6.65770642181696e+000dB,-1.70360159490492e+002°)
1.77827941003892e+002	(6.67732586073417e+000dB,-1.70135506395707e+002°)
1.81970085860998e+002	(6.69783000771231e+000dB,-1.69907783358380e+002°)
1.86208713666286e+002	(6.71925574167996e+000dB,-1.69677017683950e+002°)
1.90546071796324e+002	(6.74164129646828e+000dB,-1.69443244898502e+002°)
1.94984459975804e+002	(6.76502628903991e+000dB,-1.69206509392275e+002°)
1.99526231496887e+002	(6.78945174616700e+000dB,-1.68966865104455e+002°)
2.04173794466952e+002	(6.81496012925145e+000dB,-1.68724376251543e+002°)
2.08929613085403e+002	(6.84159535694868e+000dB,-1.68479118101607e+002°)
2.13796208950222e+002	(6.86940282521994e+000dB,-1.68231177796907e+002°)
2.18776162394954e+002	(6.89842942439962e+000dB,-1.67980655227435e+002°)
2.23872113856833e+002	(6.92872355282072e+000dB,-1.67727663958049e+002°)
2.29086765276776e+002	(6.96033512649456e+000dB,-1.67472332211995e+002°)
2.34422881531991e+002	(6.99331558428867e+000dB,-1.67214803913716e+002°)
2.39883291901948e+002	(7.02771788798901e+000dB,-1.66955239793985e+002°)
2.45470891568502e+002	(7.06359651656938e+000dB,-1.66693818560502e+002°)
2.51188643150957e+002	(7.10100745391940e+000dB,-1.66430738137257e+002°)
2.57039578276885e+002	(7.14000816920508e+000dB,-1.66166216976046e+002°)
2.63026799189537e+002	(7.18065758894634e+000dB,-1.65900495443691e+002°)
2.69153480392690e+002	(7.22301605979998e+000dB,-1.65633837288622e+002°)
2.75422870333816e+002	(7.26714530092602e+000dB,-1.65366531190614e+002°)
2.81838293126444e+002	(7.31310834469162e+000dB,-1.65098892397572e+002°)
2.88403150312659e+002	(7.36096946433011e+000dB,-1.64831264453365e+002°)
2.95120922666637e+002	(7.41079408701528e+000dB,-1.64564021020807e+002°)
3.01995172040200e+002	(7.46264869063662e+000dB,-1.64297567803897e+002°)
3.09029543251358e+002	(7.51660068236117e+000dB,-1.64032344573491e+002°)
3.16227766016837e+002	(7.57271825684480e+000dB,-1.63768827300497e+002°)
3.23593656929627e+002	(7.63107023169954e+000dB,-1.63507530400618e+002°)
3.31131121482590e+002	(7.69172585753758e+000dB,-1.63249009094406e+002°)
3.38844156139201e+002	(7.75475459958479e+000dB,-1.62993861886116e+002°)
3.46736850452530e+002	(7.82022588748947e+000dB,-1.62742733164313e+002°)
3.54813389233574e+002	(7.88820882953340e+000dB,-1.62496315926497e+002°)
3.63078054770100e+002	(7.95877188698271e+000dB,-1.62255354629059e+002°)
3.71535229097171e+002	(8.03198250378515e+000dB,-1.62020648162534e+002°)
3.80189396320559e+002	(8.10790668622483e+000dB,-1.61793052950422e+002°)
3.89045144994279e+002	(8.18660852647982e+000dB,-1.61573486167552e+002°)
3.98107170553495e+002	(8.26814966328561e+000dB,-1.61362929071028e+002°)
4.07380277804111e+002	(8.35258867208691e+000dB,-1.61162430433036e+002°)
4.16869383470333e+002	(8.43998037615533e+000dB,-1.60973110059977e+002°)
4.26579518801591e+002	(8.53037506917465e+000dB,-1.60796162376361e+002°)
4.36515832240164e+002	(8.62381763872930e+000dB,-1.60632860044290e+002°)
4.46683592150961e+002	(8.72034657902337e+000dB,-1.60484557579926e+002°)
4.57088189614873e+002	(8.81999287998713e+000dB,-1.60352694916640e+002°)
4.67735141287196e+002	(8.92277877876160e+000dB,-1.60238800850153e+002°)
4.78630092322636e+002	(9.02871635841688e+000dB,-1.60144496283430e+002°)
4.89778819368444e+002	(9.13780597772543e+000dB,-1.60071497167739e+002°)
5.01187233627270e+002	(9.25003451498639e+000dB,-1.60021617010641e+002°)
5.12861383991362e+002	(9.36537340838891e+000dB,-1.59996768790933e+002°)
5.24807460249770e+002	(9.48377647539503e+000dB,-1.59998966084240e+002°)
5.37031796370250e+002	(9.60517749434078e+000dB,-1.60030323160294e+002°)
5.49540873857622e+002	(9.72948753316946e+000dB,-1.60093053763579e+002°)
5.62341325190346e+002	(9.85659201330480e+000dB,-1.60189468232611e+002°)
5.75439937337154e+002	(9.98634750157667e+000dB,-1.60321968549915e+002°)
5.88843655355586e+002	(1.01185782303740e+001dB,-1.60493040845400e+002°)
6.02559586074355e+002	(1.02530723564599e+001dB,-1.60705244802059e+002°)
6.16595001861479e+002	(1.03895779828562e+001dB,-1.60961199337539e+002°)
6.30957344480190e+002	(1.05277989866847e+001dB,-1.61263563862800e+002°)
6.45654229034652e+002	(1.06673907196319e+001dB,-1.61615014356624e+002°)
6.60693448007592e+002	(1.08079556775007e+001dB,-1.62018213451611e+002°)
6.76082975391978e+002	(1.09490392716482e+001dB,-1.62475773716564e+002°)
6.91830970918933e+002	(1.10901258780780e+001dB,-1.62990213358140e+002°)
7.07945784384134e+002	(1.12306353889939e+001dB,-1.63563903671748e+002°)
7.24435960074986e+002	(1.13699205451850e+001dB,-1.64199007771223e+002°)
7.41310241300914e+002	(1.15072653827146e+001dB,-1.64897410443992e+002°)
7.58577575029180e+002	(1.16418851793305e+001dB,-1.65660639437314e+002°)
7.76247116628688e+002	(1.17729283279407e+001dB,-1.66489779100406e+002°)
7.94328234724277e+002	(1.18994805873623e+001dB,-1.67385378093651e+002°)
8.12830516164095e+002	(1.20205721533004e+001dB,-1.68347353816907e+002°)
8.31763771102666e+002	(1.21351879429591e+001dB,-1.69374897262748e+002°)
8.51138038202372e+002	(1.22422813830655e+001dB,-1.70466383089419e+002°)
8.70963589956076e+002	(1.23407918244644e+001dB,-1.71619290713095e+002°)
8.91250938133741e+002	(1.24296654738981e+001dB,-1.72830142981421e+002°)
9.12010839355905e+002	(1.25078794415913e+001dB,-1.74094469325700e+002°)
9.33254300796986e+002	(1.25744681705781e+001dB,-1.75406800011565e+002°)
9.54992586021431e+002	(1.26285511726130e+001dB,-1.76760697068612e+002°)
9.77237220955805e+002	(1.26693606901552e+001dB,-1.78148825610437e+002°)
9.99999999999994e+002	(1.26962676850975e+001dB,-1.79563066613522e+002°)
1.02329299228075e+003	(1.27088044712298e+001dB,1.79005330989590e+002°)
1.04712854805089e+003	(1.27066823944479e+001dB,1.77565564482908e+002°)
1.07151930523760e+003	(1.26898032344915e+001dB,1.76127066596206e+002°)
1.09647819614318e+003	(1.26582634365436e+001dB,1.74699281097104e+002°)
1.12201845430196e+003	(1.26123508321522e+001dB,1.73291437476382e+002°)
1.14815362149688e+003	(1.25525341057529e+001dB,1.71912337555203e+002°)
1.17489755493952e+003	(1.24794458254743e+001dB,1.70570165599308e+002°)
1.20226443461741e+003	(1.23938603117508e+001dB,1.69272331144902e+002°)
1.23026877081237e+003	(1.22966679124988e+001dB,1.68025350601967e+002°)
1.25892541179416e+003	(1.21888473667476e+001dB,1.66834770268818e+002°)
1.28824955169313e+003	(1.20714378777110e+001dB,1.65705130122991e+002°)
1.31825673855640e+003	(1.19455123141156e+001dB,1.64639965013142e+002°)
1.34896288259165e+003	(1.18121526625848e+001dB,1.63641837890255e+002°)
1.38038426460288e+003	(1.16724285151104e+001dB,1.62712398559883e+002°)
1.41253754462275e+003	(1.15273790396208e+001dB,1.61852461057971e+002°)
1.44543977074592e+003	(1.13779985825205e+001dB,1.61062093010784e+002°)
1.47910838816820e+003	(1.12252258104996e+001dB,1.60340711051469e+002°)
1.51356124843620e+003	(1.10699361229632e+001dB,1.59687177345272e+002°)
1.54881661891247e+003	(1.09129369543039e+001dB,1.59099893359138e+002°)
1.58489319246110e+003	(1.07549655286660e+001dB,1.58576888074542e+002°)
1.62181009735892e+003	(1.05966886172906e+001dB,1.58115898800975e+002°)
1.65958690743755e+003	(1.04387038677349e+001dB,1.57714443555777e+002°)
1.69824365246173e+003	(1.02815423139540e+001dB,1.57369884617434e+002°)
1.73780082874936e+003	(1.01256717270546e+001dB,1.57079483338833e+002°)
1.77827941003891e+003	(9.97150052131736e+000dB,1.56840446641686e+002°)
1.81970085860997e+003	(9.81938198384183e+000dB,1.56649965827025e+002°)
1.86208713666286e+003	(9.66961864570141e+000dB,1.56505248454597e+002°)
1.90546071796323e+003	(9.52246665609164e+000dB,1.56403544090040e+002°)
1.94984459975803e+003	(9.37814005792323e+000dB,1.56342164713518e+002°)
1.99526231496887e+003	(9.23681489369640e+000dB,1.56318500544328e+002°)
2.04173794466952e+003	(9.09863309477061e+000dB,1.56330031976087e+002°)
2.08929613085403e+003	(8.96370612601686e+000dB,1.56374338246499e+002°)
2.13796208950222e+003	(8.83211837212297e+000dB,1.56449103391668e+002°)
2.18776162394954e+003	(8.70393026230117e+000dB,1.56552119962107e+002°)
2.23872113856832e+003	(8.57918113757706e+000dB,1.56681290909266e+002°)
2.29086765276776e+003	(8.45789186986583e+000dB,1.56834629989151e+002°)
2.34422881531991e+003	(8.34006724523271e+000dB,1.57010260974408e+002°)
2.39883291901947e+003	(8.22569812555188e+000dB,1.57206415918041e+002°)
2.45470891568501e+003	(8.11476340359189e+000dB,1.57421432670697e+002°)
2.51188643150956e+003	(8.00723176667139e+000dB,1.57653751818439e+002°)
2.57039578276885e+003	(7.90306328366996e+000dB,1.57901913178698e+002°)
2.63026799189536e+003	(7.80221082951725e+000dB,1.58164551967730e+002°)
2.69153480392690e+003	(7.70462136046005e+000dB,1.58440394732892e+002°)
2.75422870333815e+003	(7.61023705249327e+000dB,1.58728255126627e+002°)
2.81838293126443e+003	(7.51899631442961e+000dB,1.59027029585596e+002°)
2.88403150312659e+003	(7.43083468618110e+000dB,1.59335692967433e+002°)
2.95120922666636e+003	(7.34568563199917e+000dB,1.59653294188681e+002°)
3.01995172040199e+003	(7.26348123764236e+000dB,1.59978951900034e+002°)
3.09029543251357e+003	(7.18415281975312e+000dB,1.60311850228984e+002°)
3.16227766016836e+003	(7.10763145509694e+000dB,1.60651234614865e+002°)
3.23593656929626e+003	(7.03384843676638e+000dB,1.60996407756965e+002°)
3.31131121482589e+003	(6.96273566395273e+000dB,1.61346725692683e+002°)
3.38844156139200e+003	(6.89422597144893e+000dB,1.61701594019502e+002°)
3.46736850452529e+003	(6.82825340464252e+000dB,1.62060464271647e+002°)
3.54813389233573e+003	(6.76475344539549e+000dB,1.62422830459770e+002°)
3.63078054770099e+003	(6.70366319386386e+000dB,1.62788225779656e+002°)
3.71535229097170e+003	(6.64492151099658e+000dB,1.63156219493863e+002°)
3.80189396320558e+003	(6.58846912614465e+000dB,1.63526413988229e+002°)
3.89045144994278e+003	(6.53424871392121e+000dB,1.63898442003464e+002°)
3.98107170553494e+003	(6.48220494416676e+000dB,1.64271964040425e+002°)
4.07380277804110e+003	(6.43228450859292e+000dB,1.64646665936223e+002°)
4.16869383470332e+003	(6.38443612740234e+000dB,1.65022256607067e+002°)
4.26579518801589e+003	(6.33861053891073e+000dB,1.65398465952594e+002°)
4.36515832240162e+003	(6.29476047492623e+000dB,1.65775042915515e+002°)
4.46683592150960e+003	(6.25284062438083e+000dB,1.66151753689589e+002°)
4.57088189614871e+003	(6.21280758744729e+000dB,1.66528380068321e+002°)
4.67735141287194e+003	(6.17461982212767e+000dB,1.66904717926278e+002°)
4.78630092322634e+003	(6.13823758505373e+000dB,1.67280575824633e+002°)
4.89778819368442e+003	(6.10362286801137e+000dB,1.67655773732299e+002°)
5.01187233627268e+003	(6.07073933147796e+000dB,1.68030141854024e+002°)
5.12861383991361e+003	(6.03955223625459e+000dB,1.68403519556849e+002°)
5.24807460249768e+003	(6.01002837408090e+000dB,1.68775754386530e+002°)
5.37031796370248e+003	(5.98213599794405e+000dB,1.69146701165795e+002°)
5.49540873857620e+003	(5.95584475262319e+000dB,1.69516221166693e+002°)
5.62341325190344e+003	(5.93112560587160e+000dB,1.69884181349696e+002°)
5.75439937337152e+003	(5.90795078049965e+000dB,1.70250453662762e+002°)
5.88843655355584e+003	(5.88629368751123e+000dB,1.70614914394054e+002°)
6.02559586074353e+003	(5.86612886034341e+000dB,1.70977443572655e+002°)
